! S11 = S11
! S12 = S12
! S13 = S13
! S14 = S14
! S21 = S21
! S22 = S22
! S23 = S23
! S24 = S24
! S31 = S31
! S32 = S32
! S33 = S33
! S34 = S34
! S41 = S41
! S42 = S42
! S43 = S43
! S44 = S44
!
! FILE: L:\PLTS\Trace Boards\Meg6_smp_june_2015\board_sn_56c014\SMP_De-embedded - 35GHz\SMP_De-embedded - 35GHz2\L18_19in.s4p
!$DUT_CFG_DESC: Default 4-Port Configuration
!$NUMBER_PORTS: 4
!$DIFF_PORT_MAP: 1|2P|2|2P|0|UC|0|UC|
!$PORT_MAP: 1|1|<<<<<<|2|2|>>>>>>|3|3|<<<<<<|4|4|>>>>>>|
!
# MHz S MA R 50.00
!
! FREQ                  		S11                         			   S12                         			   S13                         			   S14
!                       		S21                         			   S22                         			   S23                         			   S24
!                       		S31                         			   S32                         			   S33                         			   S34
!                       		S41                         			   S42                         			   S43                         			   S44
!                       		
!                  	MAG     		    ANGLE              	      MAG     		    ANGLE              	      MAG     		    ANGLE              	      MAG     		    ANGLE              	      
10.00000000      0.0881377156864865      -46.098975858477       0.960386789117379     -10.4530663915372    0.000554317866185897       6.8061687897217    0.000340974722446156      34.3730728879539    
                  0.961413212255017     -10.4242445590878      0.0310614978994709     -176.593010349791    0.000188666705819832      102.334558993196    0.000537296566186438      37.6377861742301    
               0.000855470246651822      32.5034537734353     0.00038005398239185      68.8809021687994       0.088087281356641      36.4925749132834       0.939595669477017     -13.4357852299462    
               0.000332117992593728      87.3911839070646    0.000847731105491888      56.6081071667748       0.937060062992339     -13.3992598133673      0.0541997281639699    -0.177931691079065    
               
20.00000000      0.0919783369763754     -45.5844954410313       0.943344403609286     -22.6382662452643     0.00117197154746101       54.566916781897    0.000208083565380225       73.256561449045    
                  0.944044731589094     -22.6359454848461      0.0147691168292055     -151.966877790332    0.000169459785031595       78.091561915625     0.00128054961147923      56.6892545325151    
                0.00132916167411246      51.5516331694825    0.000138389479754107      152.884773133588       0.063886765262621      21.0704583663727        0.94717733451045     -24.0821654823911    
               0.000218944111303176      75.9366605077154     0.00118718210996784        54.43002277682       0.944751198060373     -24.0200499218757      0.0500510347042562    -0.136167275651677    
               
30.00000000      0.0896404378386161     -58.3086820662087       0.937221953130232     -34.2608614894191     0.00176285358890977      53.5568523918444    3.35090914998206e-005      116.725164096861    
                   0.93766845324695     -34.2780863997237      0.0203661172512146     -128.777138406752    0.000236331326527464      151.249968820492      0.0016260115778245       46.316679896077    
                 0.0017732584545251      50.4589222126162    0.000191659024099425      129.556091841668      0.0638985891271533      13.2303172468406       0.945360236105803     -35.2280793470567    
               0.000114648476553779      57.0354737133504     0.00168104780909817      46.0710667888284       0.943397284513831     -35.1988656310419      0.0530019516992234     -8.72783335140939    
               
40.00000000      0.0822489125428321      -72.857516853193       0.932603159420761     -45.7842364601334     0.00224271800928663      38.8487058765148    0.000118791090965412      41.4792719368347    
                  0.933260189731499     -45.7935654416955       0.026853731988706     -123.893810408214    0.000201235914590892       116.22787948855     0.00224101308689847      40.9613708770319    
                0.00234013671834456      36.4464627816503    0.000198641760910323      112.461071603326      0.0685447419275263      1.11363425674835       0.942783502683483     -46.4327513343312    
               0.000137095090274652     -3.37407946764522     0.00219644563418137      39.8555313820917       0.940613929353183     -46.4069191053133      0.0519163033515565     -17.3270721155651    
               
50.00000000      0.0725880187126342     -88.6996930700564       0.928935310873256      -57.260020805571     0.00262598470994903      30.1293955317471    4.95893770391616e-005     -12.7770680982083    
                  0.929462099149918     -57.2585236800417      0.0314032359323676     -121.811234721493    0.000196945086496909      97.1928491323638      0.0024972962876736      30.1714377108207    
                0.00257419644752442      30.0424155010966    0.000144883859538866      134.866884445405      0.0700846284107209     -13.6234299922351       0.939479788260324     -57.6865557630331    
               8.86252046205902e-005      7.32285006380984     0.00248207194020785      30.1528328721238       0.937565809684664     -57.6369322435969      0.0505358116213599     -24.7306226893752    
               
60.00000000      0.0622075826804338     -106.629411353354       0.925474746314129     -68.6128866561597     0.00282559049248143      19.2470949504775    1.95343336949897e-005      18.0732446667532    
                  0.925453424353447      -68.613797138777      0.0386883979657809     -120.042005365737    0.000142533074935735       51.649205054967     0.00271392554911284      18.4576638187052    
                0.00296891690090868      18.8261772726684    0.000189259778017641      110.926201065158        0.06859432067047     -26.4021385744322       0.936058161211946     -68.9163820762581    
               0.000157009024951745      -81.659937551862     0.00272016305547726      18.2682787710045       0.934708417400199     -68.9152136262025      0.0482536780742912     -31.3827751268705    
               
70.00000000      0.0521097052716634     -128.410105328292       0.921923666907445     -79.9664879349125     0.00311141803678934      9.36305733059348    0.000228767789420416     -80.9211427474261    
                  0.921621176387944     -79.9648634238371      0.0473758151304716     -123.764677290617    0.000179709679341089       84.107281076558     0.00294459463987194       8.7840743538909    
                0.00300101663527018      8.16095241445009    6.80910524113975e-005      111.106396904999      0.0675571911738845     -38.1107633239736       0.933658458470575     -80.1432705178929    
               0.000126230878771174     -84.5419227435766      0.0028588100457995      7.58858003529037       0.932121878472885     -80.1687928306411      0.0458103951894585      -40.699415875437    
               
80.00000000      0.0425069450350053     -154.281023709941        0.91766613453622     -91.2835282962252     0.00301504796535965     -2.55131368107253    0.000166245439225997       -122.0755354819    
                  0.917608598393378     -91.2737401720525      0.0551821999082471      -129.79716201738    0.000134088195695526      73.5869764578116     0.00300639465715898     -3.01738099749199    
                0.00305730215952964     -2.50056514672021    0.000149868330053195      91.4232624198633      0.0660010934155912     -50.5066623413889       0.930771846393434     -91.3989744256582    
               8.87229875728065e-005      -106.09047677867     0.00295265091479634     -2.36061538307916       0.929499625217374     -91.4213448624569      0.0414557475527822     -50.9397871553793    
               
90.00000000      0.0348159141671789      174.885949144062       0.913936947431986     -102.561711002043     0.00300747860212757      -12.563936640989    0.000133820054959424     -131.209780745443    
                  0.913927813989614     -102.563117161128       0.060353927946788     -135.826719475734    0.000163309264556295      80.4963399993903     0.00285127543668849     -12.9626651883429    
                 0.0029281402579778     -13.0370070919158    0.000130972895445392      66.5279255922619      0.0620054772273915     -64.1112771305187       0.927901000702441     -102.652800046103    
               0.000123435259793619      -156.43151390629     0.00286499585328384     -12.0702391051408       0.926683960588746     -102.660771490674      0.0366766174573659      -60.257427862851    
               
100.00000000      0.0309552504021014      138.127648944693       0.910780557812568     -113.820400699799     0.00274373492069546     -22.7965615707926    0.000147518759144412     -166.080571539589    
                  0.910752933021357     -113.818044082491      0.0630719407336498     -142.044685022213    0.000110153178189675      64.1595602597447      0.0027050563475674     -21.4564641953861    
                0.00274884245642578     -22.2443498147247    0.000107707151442491      69.7478255500913      0.0552890567813166      -78.041795079873       0.925180753423011     -113.881796069581    
               0.000147055538517218     -170.442233256732     0.00269671147855569     -21.5021250837065       0.923724741591591     -113.895781303625      0.0314239671614629     -69.8062944327386    
               
110.00000000      0.0327062835153613      100.472687859567       0.907618442017087     -125.050639861688     0.00243286507336369     -33.2317792343004    0.000168845437765278      170.932020851635    
                  0.907544780052342     -125.046067041421      0.0642589326132918     -148.444260713561    9.22892916493155e-005       63.312772652169     0.00237990207698084     -32.2528341017513    
                0.00241644862543361     -33.0346817884959    7.14859696300407e-005      85.5914171659669      0.0475793439035027     -91.9529275130081       0.922176192963202     -125.125813686055    
               0.000166116393901232      165.082246198064     0.00235327285692776     -31.6539704858968        0.92076180674057     -125.119452045911      0.0258758152399596     -81.1138456385109    
               
120.00000000      0.0383084360382366      67.8290064263001       0.904757969696128     -136.250666005911     0.00208982645722779     -43.2278587248184    0.000152110295694544      143.421162617545    
                  0.904490683494352     -136.245681239487      0.0641601026314747     -154.666559840405    5.32192383965006e-005      33.5178706818619     0.00197944772311618     -40.2406098640652    
                0.00205698451824003     -41.8973137468901    3.95153253757646e-005      50.5579223066745      0.0393929948333721     -107.138491619483       0.919539342299375     -136.350268730553    
               0.000128162333695299      155.101289792903     0.00194790417777709     -41.1268049020823       0.918028185805845     -136.348679931045      0.0200876781869517     -93.1071991695442    
               
130.00000000      0.0452304895976496      41.3643612832116       0.901695644819439     -147.456862750773     0.00155019527206853     -50.3027299413613    0.000202806014156417      110.999603509077    
                  0.901527539939646     -147.453687031356      0.0626490188884659     -159.948956132115    9.8517598373545e-005      74.8847687037596     0.00153584442954139     -48.7243938230413    
                0.00154138245792957     -51.2991135654888    9.52567504024604e-005      58.9424970289565      0.0298091096069209     -124.294888851106       0.916673805201373     -147.581042382159    
               0.000183553759493235      116.327279169144     0.00151643468202706      -49.515315715528       0.915153659709682     -147.564595311145      0.0147567702749715     -105.356340966845    
               
140.00000000      0.0513653812270749       19.133267787855       0.899067333315401     -158.653344937396     0.00105043940885165      -57.432148060055    0.000145253106640994      91.9217653499988    
                  0.898896716337418     -158.646464811453      0.0595932082433375     -163.862111224666    9.7775075988428e-005       69.465287665995       0.001020639508862     -52.6358452963443    
                0.00103141913779679     -55.0506385395883    0.000112788136466267      83.2084457511234      0.0189653049762611     -144.040893937113       0.913732659254637     -158.782182785478    
               0.000158550036161407      107.681584945674     0.00105607986854132      -53.291794721731       0.912449293647146     -158.761297560191      0.0107486067410614     -122.274325372209    
               
150.00000000      0.0562011201733339    -0.431099488183953       0.896419130766916     -169.845809731465    0.000509457927383439     -52.5672130864924    0.000195542018065899      81.8118804470519    
                  0.896440977746303     -169.840509324284      0.0559077579368283     -166.450914111832    0.000158464312076673      71.2095183841391    0.000525495756525793     -39.1602315087482    
               0.000501261224561727     -49.8826143278462    0.000166204467049585      73.9950461890373     0.00905050959145865     -174.914091700344       0.910857208113657     -169.966592861451    
               0.000197050506420543      87.0570241025103     0.00056383691404379     -38.2451810353222       0.909514493366878      -169.95452843521     0.00776911988884607        -150.080589656    
               
160.00000000      0.0599038196580213     -18.9432663280912       0.894032181269643      178.966923127038    0.000284667029377498      31.1399300448524    0.000149325930156808      73.9553893817219    
                  0.894025553201528      178.967809745817      0.0521352381216021     -167.568394963689    0.000164097773134388      49.0424267359154    0.000373397635338039      22.2239606360299    
                0.00027489828972492      33.6914823614542    0.000184432888001207      52.4266350159752     0.00638483687932577      95.1807666853263       0.908178552629233      178.855191029049    
               0.000132890829238118      70.6659463599888    0.000403623047188799      18.8003427820612       0.906769473509351      178.868992484225     0.00655047338121298      168.007728176535    
               
170.00000000      0.0614971270122593     -37.3943609956435       0.891680753992864      167.774540672107    0.000774930001739875      61.2197394385026    0.000150253463447447      52.8877399108532    
                  0.891661247058608      167.777342667975      0.0486469642051058      -167.83683732095    0.000222063695022255      33.2499186464072     0.00080784091998999      48.3153762628597    
                0.00077178876245141      59.9269440607864    0.000206628960777325       38.130397266266      0.0142216098644353      43.6729277856243       0.905440112459862      167.670075240758    
               0.000155747700403542      59.2777805626682    0.000808079404201532      48.2181283481813       0.904053147708949      167.693171983441     0.00747383377486581      133.127111597236    
               
180.00000000      0.0610315357906239     -56.0824705956368       0.889246484831333      156.599526651679     0.00136503971121387      58.2176830619966    0.000142678422577353      59.7546579033324    
                  0.889335477082933      156.596519678399      0.0455122082042414     -167.564764616308    0.000182793486604072      16.2560981177665     0.00131153600920262      48.0700419055314    
                0.00129930077979748      58.6533614501203    0.000274257955613649      29.3105278855428      0.0232606204933386      19.2700687113408       0.902519245932045      156.502502928857    
                7.909517978608e-005      54.6146049534934     0.00132290824766595      46.4541114549289       0.901339058608442      156.510683439718     0.00922348241951774      114.839977362731    
               
190.00000000      0.0593740165226022     -75.3703968740502       0.886955989256943      145.410201803397     0.00184680177561112      49.6149493484909     7.249314945651e-005      50.2077994769828    
                  0.886857024534772      145.413017489749      0.0427073469266775     -165.880883415674    0.000223513187111489      -6.0071995950263     0.00180827304885389      43.8504059240461    
                0.00177240095408178      47.1976197070379    0.000197313316204783     -17.3968257631964      0.0310999975211323    -0.124237047354301       0.899810258510792       145.31930232487    
               8.68989848393017e-005      48.3672222982564     0.00183698185455332      42.5714831955551        0.89854873221999      145.346613175081      0.0111414679263319      104.307645139036    
               
200.00000000      0.0575695630514878      -95.232888928693       0.884272748570253      134.234767653263     0.00224444965482003      41.3541356088432    0.000106383470784868      59.2653636006772    
                  0.884496677696595      134.238669945898      0.0417068583762851     -161.400211590667    0.000167217040123515     -18.7448658147028     0.00218300451333912      33.1972565606876    
                0.00218745970728393      41.2442807256553    0.000191920264778491     -13.0560739283525      0.0373648948445474     -16.4143463211241       0.897708030504651      134.156523937729    
               9.91867702888622e-005      61.8349194550354     0.00215502044773335      33.7027411225079       0.896260232792913      134.179131802244       0.012581459946587      96.5202595394636    
               
210.00000000      0.0554306872049307     -116.247176767986        0.88164287547298      123.060278543124     0.00262342314712011      31.4971473670877    0.000164286251446965      50.3981976471816    
                  0.881635669154938      123.052379911405      0.0437741043218042     -156.431314467888    0.000268025677659298     -23.9476173227142     0.00256025907283102      25.0715962534251    
                0.00262107473853087      30.2479930593389    0.000182355570403716     -42.4375094221999      0.0435169234475478     -31.5708148402119       0.895604394508304      123.001999397926    
               0.000153345251623459      26.9406471739732     0.00250510192328467      24.6484068382676       0.894161426272592      123.026345033505      0.0127896340428943      92.6896771184327    
               
220.00000000      0.0525301244352722     -137.636230695389       0.878944638953936       111.88384800477     0.00284905157956126      20.8212511306152    0.000203206681567288      39.2836989258485    
                   0.87883634994411      111.871045963796      0.0471294124592261     -154.219362847086    0.000185616335264056      -64.931378943473     0.00276036135436134      15.1651554686988    
                0.00285602760466787      22.4537723092712    0.000180903543732167     -48.1898687776475      0.0487094342863567     -48.1691401583207       0.893124203654781      111.841654675296    
               0.000157467514016315      44.4991271793754      0.0027177448618802      15.1134106768136       0.891986286623097      111.872410499699      0.0128301996848834      95.7067986926807    
               
230.00000000      0.0490891876040909     -159.080602225914       0.876858244208989      100.717206896274     0.00300570581983456      10.7532540389428     0.00017252881742603      27.5386030560809    
                  0.876691250757679      100.718292698643      0.0492845252917541     -154.796305827311    0.000165751948220847     -56.5916833421049     0.00290290433967455      5.05601688151041    
                0.00303470977860408      11.4752673516265    0.000165775583580752     -53.7979238268335      0.0506099171811212     -65.4183093043783       0.890581441755093      100.694497313385    
