!Agilent Technologies,N5245A,MY51251349,A.09.33.09
!Agilent N5245A: A.09.33.09
!Date: Wednesday, September 30, 2020 11:25:14
!Correction: S11(Full 4 Port(1,2,3,4)) 
!S12(Full 4 Port(1,2,3,4)) 
!S13(Full 4 Port(1,2,3,4)) 
!S14(Full 4 Port(1,2,3,4)) 
!S21(Full 4 Port(1,2,3,4)) 
!S22(Full 4 Port(1,2,3,4)) 
!S23(Full 4 Port(1,2,3,4)) 
!S24(Full 4 Port(1,2,3,4)) 
!S31(Full 4 Port(1,2,3,4)) 
!S32(Full 4 Port(1,2,3,4)) 
!S33(Full 4 Port(1,2,3,4)) 
!S34(Full 4 Port(1,2,3,4)) 
!S41(Full 4 Port(1,2,3,4)) 
!S42(Full 4 Port(1,2,3,4)) 
!S43(Full 4 Port(1,2,3,4)) 
!S44(Full 4 Port(1,2,3,4)) 
!S4P File: Measurements: <S11,S12,S13,S14>,
!<S21,S22,S23,S24>,
!<S31,S32,S33,S34>,
!<S41,S42,S43,S44>:
# Hz S  dB   R 50
10000000 -19.479208 66.107933 0.020008033 -14.008515 -53.512592 -175.67386 -38.004036 158.99068
-0.1451446 -14.127602 -20.083176 76.680862 -51.653725 -78.54882 -39.046806 71.746986
-43.119045 135.60902 -40.165558 131.75934 -19.956015 57.897758 -0.10242994 -14.213114
-45.753571 -168.83865 -42.83337 51.570396 -0.28412756 -13.849719 -19.81115 65.615753
17810937.5 -26.979403 42.755169 -0.21256135 -17.518969 -36.477459 62.875328 -46.041569 -171.37657
-0.078170381 -17.735743 -24.81958 47.345512 -51.447018 -157.85907 -36.627792 68.620178
-34.984161 67.25869 -58.556507 175.32687 -23.207056 44.999832 -0.29989752 -18.897619
-57.343285 -99.617508 -34.636421 60.636536 -0.29959202 -18.450333 -23.192713 46.03228
25621875 -26.229166 41.493492 -0.19598317 -23.98448 -32.822285 64.239479 -51.632397 -127.47327
-0.23579019 -24.079514 -24.170656 25.665092 -65.411522 25.268581 -31.861759 60.55732
-31.567932 67.547478 -44.943405 -174.58363 -24.609745 37.43858 -0.34966853 -24.940153
-52.519039 163.78131 -31.955763 67.546463 -0.362019 -24.691044 -24.126127 35.212261
33432812.5 -27.170944 22.835091 -0.226198 -29.50778 -30.926115 54.66774 -49.627987 142.91693
-0.23801666 -29.981209 -28.175253 23.650446 -53.661774 -98.326363 -30.566776 56.497257
-29.928501 59.135517 -49.631664 -167.20903 -24.761684 22.058332 -0.38142076 -30.696663
-49.206047 -127.68148 -30.80271 52.304543 -0.37886289 -30.336012 -25.924772 25.673035
41243750 -25.558292 15.816924 -0.25194478 -36.060799 -28.931591 50.463764 -54.257526 -177.59674
-0.23090135 -36.342926 -27.050209 8.8168659 -48.987751 -139.96547 -28.618637 47.557564
-28.522943 55.034817 -46.553703 -145.12064 -25.932501 13.820433 -0.3627739 -37.161819
-52.142998 -170.08029 -29.189371 49.545139 -0.36478844 -36.826355 -25.277433 12.478471
49054687.5 -28.104073 -2.3034227 -0.28332636 -42.49596 -27.305197 47.918049 -50.136551 160.59879
-0.24907032 -42.727795 -27.692554 9.8669405 -48.129833 -179.54485 -27.399326 40.781101
-27.714193 46.606201 -49.156128 -162.1028 -26.60709 8.3466778 -0.40452611 -43.261284
-47.762291 -165.69089 -27.816463 43.746166 -0.44875196 -42.939266 -25.678766 7.0297294
56865625 -26.987963 -19.645357 -0.3403748 -48.848949 -26.778378 41.509327 -50.06665 177.10901
-0.2899847 -48.750706 -26.81859 -2.7156301 -55.398403 -147.09477 -25.831301 35.449142
-25.750259 45.672394 -44.30397 -142.97333 -26.915941 -0.76028305 -0.39693812 -49.197723
-46.729862 -153.50168 -26.214743 36.556442 -0.42310229 -49.679302 -25.866043 -1.6425606
64676562.5 -26.9974 -42.448772 -0.40168768 -55.573063 -25.393803 38.963047 -46.052795 -124.31274
-0.31722254 -55.644321 -26.45295 -17.497482 -45.386181 -179.24942 -25.751085 28.698263
-25.132101 37.268528 -44.308002 141.35934 -27.146753 -7.1860285 -0.43894914 -55.715996
-49.213448 -122.16331 -25.042921 28.524664 -0.41280442 -55.731815 -27.460524 -11.897459
72487500 -29.704987 -35.64225 -0.38145053 -61.764282 -24.643835 30.787167 -47.578506 -170.48839
-0.32985297 -61.823013 -28.000212 -20.15274 -46.35355 173.40569 -24.725689 23.149385
-24.665468 31.326799 -44.63287 162.0374 -26.873489 -16.903324 -0.43355134 -62.133358
-46.506489 178.22159 -24.56918 20.722242 -0.47001618 -62.18063 -25.933439 -20.969736
80298437.5 -28.992672 -31.51935 -0.39206827 -68.317574 -23.951382 26.14654 -50.092636 -157.43503
-0.35748541 -68.20034 -26.874664 -34.706585 -49.234005 159.91594 -23.96447 14.719058
-23.67322 25.377655 -46.781952 -158.71191 -27.441292 -27.981544 -0.449404 -68.749847
-43.635529 177.71666 -23.928965 15.58251 -0.50804365 -68.577415 -25.523497 -25.901085
88109375 -28.811068 -41.184418 -0.41207621 -74.721954 -23.292208 20.217806 -45.76696 -172.97224
-0.39017028 -74.665642 -27.191952 -45.606754 -49.241863 138.74336 -23.55085 7.7069159
-23.327719 21.726778 -47.128536 164.59747 -28.450352 -29.502121 -0.47316551 -75.42659
-43.710911 167.1152 -23.31958 7.9674439 -0.48600379 -74.945839 -26.092812 -29.281439
95920312.5 -29.124065 -48.396435 -0.43670657 -81.279572 -22.628027 13.647438 -46.567394 -178.65144
-0.40285701 -81.030014 -27.495874 -39.569473 -47.811554 -177.45277 -22.724308 0.81039333
-22.593615 14.076852 -46.54884 177.44707 -29.190109 -47.944572 -0.48154014 -81.544174
-44.154793 157.017 -22.837564 1.1607291 -0.52835119 -81.592514 -25.859177 -38.689541
103731250 -29.080677 -53.832466 -0.49118516 -87.56208 -22.316265 7.8313847 -48.135109 178.03052
-0.40664366 -87.63623 -27.71623 -58.837654 -46.495331 169.82961 -22.247498 -5.3738379
-22.34833 8.5307274 -44.462467 169.87651 -29.733606 -51.67062 -0.53903836 -87.950905
-44.065262 158.84392 -22.398188 -4.5934434 -0.52058452 -87.868217 -26.085024 -52.35947
111542187.5 -29.515223 -70.229179 -0.52191699 -94.007271 -22.067728 2.438391 -47.925205 166.94087
-0.42412254 -94.081078 -28.982386 -58.912144 -43.47765 166.07236 -21.775007 -11.293508
-21.813828 2.1263068 -41.756809 160.32399 -29.6991 -49.440872 -0.49041 -94.426956
-44.137989 175.55975 -21.835011 -11.931854 -0.51790446 -94.27533 -26.733309 -51.045925
119353125 -30.625101 -87.74836 -0.50226563 -100.63596 -21.621119 -2.9954531 -44.741833 173.16452
-0.47473401 -100.52052 -27.202103 -72.721024 -44.892147 147.5703 -21.624577 -19.860008
-21.45718 -4.060791 -45.260223 157.57834 -29.704853 -54.605404 -0.54248732 -100.88667
-46.360733 153.65056 -21.522429 -19.133968 -0.55818504 -100.58086 -26.691282 -59.744968
127164062.5 -32.346958 -80.245247 -0.47376001 -107.02806 -21.326008 -9.5373726 -43.72171 155.85759
-0.46756336 -106.91183 -27.822571 -76.276039 -42.819443 170.29797 -21.371149 -26.197445
-21.147421 -9.2429295 -45.752007 177.13196 -32.550709 -71.781822 -0.59462434 -107.05143
-44.306004 154.29506 -21.392363 -25.327686 -0.62167788 -107.16212 -27.700209 -65.555183
134975000 -34.737316 -77.271149 -0.54144406 -113.367 -21.088846 -14.828712 -43.481716 151.73445
-0.49683234 -113.33827 -27.793636 -85.812538 -44.197289 158.58748 -21.186434 -31.789961
-20.934025 -14.879053 -41.635036 150.35672 -31.458176 -68.319077 -0.61817491 -113.48544
-41.538185 151.48041 -20.998129 -32.521996 -0.59360266 -113.34228 -27.04545 -71.549179
142785937.5 -36.094719 -101.41998 -0.57504183 -119.7407 -20.845903 -20.665674 -40.74818 155.86072
-0.52475947 -119.59734 -28.133099 -97.712746 -42.766872 154.5489 -20.844999 -39.160168
-20.694662 -21.331173 -41.641243 154.90593 -32.803219 -70.358543 -0.6404168 -119.80235
-42.104836 157.52461 -20.931059 -38.689339 -0.62931806 -119.86491 -28.241375 -76.121933
150596875 -35.186214 -97.377403 -0.60759425 -126.19231 -20.724657 -26.741966 -43.099327 146.27928
-0.53876108 -126.23452 -29.670471 -103.45016 -42.838352 153.94893 -20.927322 -45.469601
-20.621304 -27.063889 -41.072491 156.83609 -34.660259 -103.79592 -0.62249595 -126.15145
-41.473183 150.86887 -20.729233 -45.629646 -0.65332752 -126.21078 -27.381695 -85.331451
158407812.5 -36.336464 -144.24156 -0.61431092 -132.44702 -20.562222 -33.588108 -40.817123 151.73575
-0.57592869 -132.86261 -29.243565 -115.41681 -43.28463 135.99718 -20.691031 -51.680092
-20.508093 -32.612335 -41.146549 140.49635 -33.662525 -96.80513 -0.66111159 -132.76035
-40.08073 139.81918 -20.602427 -52.812763 -0.67421496 -132.73116 -28.310385 -96.138733
166218750 -42.756035 -137.03032 -0.61821038 -139.00652 -20.598724 -39.110332 -41.305065 137.532
-0.56616157 -138.85118 -29.207767 -110.22427 -40.26984 132.9762 -20.696802 -59.167416
-20.442381 -39.061848 -40.717014 143.81273 -35.589043 -129.72859 -0.68142837 -139.31555
-39.446613 144.09865 -20.745085 -59.045231 -0.70199764 -139.22813 -28.064249 -105.60683
174029687.5 -44.968842 -176.19298 -0.63812286 -145.47234 -20.36627 -45.393639 -39.451767 135.70667
-0.60852879 -145.11137 -31.325047 -118.57573 -39.666859 138.60378 -20.60821 -65.66996
-20.291018 -43.691608 -38.841408 131.9433 -37.984272 -117.74847 -0.68556589 -145.53915
-37.893154 128.99792 -20.41391 -65.379959 -0.73721087 -145.56462 -29.486292 -100.79597
181840625 -48.00341 91.679901 -0.67285287 -151.76392 -20.257275 -51.055981 -38.443977 127.3696
-0.60495317 -151.85155 -30.022158 -128.70641 -39.586674 128.49481 -20.647587 -73.03894
-20.300413 -50.636185 -38.148846 123.40115 -45.302528 -145.2449 -0.72299373 -151.83905
-39.219872 127.55254 -20.531944 -71.747253 -0.74703836 -151.83974 -30.376125 -108.53374
189651562.5 -54.707245 14.027961 -0.70442492 -158.22739 -20.496666 -57.639065 -38.387836 114.83332
-0.63319963 -158.02821 -31.252337 -130.83321 -38.195095 115.15037 -20.606813 -79.094681
-20.545122 -57.468781 -38.58242 118.80863 -42.879837 -128.09428 -0.74102974 -158.23619
-37.450928 121.81776 -20.556074 -78.862534 -0.73676306 -158.24582 -32.665379 -107.91306
197462500 -46.647236 -17.318525 -0.7033416 -164.50674 -20.342371 -63.778961 -37.988503 109.71011
-0.6491456 -164.45601 -33.283951 -133.72452 -38.360729 115.16094 -20.551762 -85.491379
-20.346312 -62.753731 -37.843281 117.68726 -44.910706 -137.49387 -0.73287588 -164.76607
-37.710243 109.61274 -20.427025 -85.649147 -0.76567209 -164.72295 -31.879522 -119.06915
205273437.5 -50.562435 38.432709 -0.66491222 -171.06488 -20.60379 -68.221092 -39.005146 105.37887
-0.65967023 -170.69324 -31.611408 -144.91522 -38.002422 106.65632 -20.558416 -92.05352
-20.398788 -69.452927 -37.553883 114.28893 -46.751198 -140.44342 -0.76380271 -171.06117
-36.816593 104.50679 -20.521875 -91.871979 -0.75314599 -171.03465 -32.723331 -117.49662
213084375 -43.983974 58.28941 -0.72181678 -177.29082 -20.503954 -75.155342 -37.782837 103.88472
-0.71462339 -177.34258 -32.565792 -149.84122 -36.201191 101.83843 -20.762707 -98.467484
-20.590458 -74.579071 -37.51857 100.68711 -46.306946 3.8754499 -0.78449559 -177.58878
-37.340115 100.68118 -20.719723 -99.858627 -0.78737694 -177.59122 -34.241764 -135.75096
220895312.5 -42.893265 32.596004 -0.7812013 176.02643 -20.711988 -81.074753 -35.849819 83.710945
-0.68901032 176.155 -35.17878 -168.21284 -36.720047 99.187866 -20.787777 -105.05373
-20.582668 -81.006042 -37.557137 94.868233 -53.590546 169.51688 -0.79806989 175.95419
-36.798958 89.465805 -20.711729 -104.40125 -0.80854183 176.18289 -34.389286 -136.78528
228706250 -37.242638 38.43755 -0.75157386 169.69785 -20.960096 -87.240852 -36.411098 86.545441
-0.73762542 169.95325 -36.748066 -167.3437 -35.821297 89.215569 -20.920645 -110.97225
-20.78142 -87.475159 -36.305653 87.58564 -51.104015 86.542793 -0.80991334 169.74213
-35.375919 86.67347 -20.925177 -110.91746 -0.82431525 169.75465 -35.572083 -132.25401
236517187.5 -35.197517 33.321213 -0.75887638 163.62595 -21.082861 -93.103836 -35.145844 82.720802
-0.73084468 163.4679 -35.198582 -143.67105 -35.85693 84.362648 -21.031193 -117.62336
-20.82786 -94.292435 -36.672916 91.395332 -43.602936 28.262894 -0.81747323 163.36501
-35.821514 81.422234 -21.008333 -117.14111 -0.860964 163.28044 -35.961025 -135.68393
244328125 -34.388653 10.571348 -0.7992925 157.20229 -21.174232 -99.485092 -34.216335 72.096725
-0.77587163 157.18324 -42.703033 -157.2576 -35.138058 78.712616 -21.127558 -123.31766
-21.05472 -100.27318 -34.894722 75.894897 -41.838188 15.961739 -0.85190868 156.90581
-34.231968 74.928459 -21.087685 -123.88696 -0.87263542 157.04083 -38.081169 -127.21554
252139062.5 -33.50111 -9.5196457 -0.78027892 150.81618 -21.240908 -106.75046 -34.9851 66.150299
-0.79619098 150.79686 -38.79364 -179.14893 -35.077 66.695374 -21.452091 -129.95131
-21.068771 -106.31662 -36.138359 68.516899 -41.734344 6.521246 -0.83585423 150.35254
-34.62532 68.5774 -21.293188 -129.81711 -0.86939549 150.5072 -37.702175 -138.87846
259950000 -40.13876 -46.03196 -0.86421442 144.38599 -21.301104 -114.30705 -34.324436 58.034683
-0.77270436 144.31454 -49.149204 -161.21313 -34.59948 65.603195 -21.468269 -135.39751
-21.399904 -113.16816 -36.137489 60.853703 -46.179955 52.295414 -0.88228935 144.22098
-34.505966 61.033062 -21.163471 -135.41777 -0.86127901 144.22812 -40.393452 -100.05856
267760937.5 -38.327858 13.543157 -0.83983922 138.06158 -21.668564 -120.2229 -34.032192 48.623104
-0.81583703 137.91032 -42.145916 -150.67702 -34.569782 53.377586 -21.868572 -141.29265
-21.477751 -120.45223 -34.787838 55.579926 -45.694386 -15.705291 -0.94071382 137.94083
-34.568623 49.904507 -21.620289 -140.4097 -0.89067519 138.02065 -39.232719 -112.44686
275571875 -35.826244 -21.349689 -0.83369386 131.44421 -21.557024 -127.32069 -33.943836 46.776505
-0.83091342 131.81485 -43.282318 162.30254 -34.196205 46.530819 -21.814083 -147.98123
-21.360163 -125.51661 -35.011978 47.508644 -42.23893 -4.7729235 -0.88690633 131.36293
-34.073441 45.678402 -21.690767 -148.43842 -0.9410786 131.59143 -38.616127 -99.651947
283382812.5 -34.940712 -24.804951 -0.86204064 125.21402 -21.988905 -134.69604 -33.876827 36.823647
-0.82779306 125.2526 -44.891552 -114.57487 -33.745399 34.637268 -21.918787 -154.27264
-21.711052 -134.02254 -33.522934 37.105099 -40.101395 -23.601927 -0.9163748 124.86848
-33.526733 41.410709 -21.928944 -152.20575 -0.95753759 125.16679 -40.185745 -118.99209
291193750 -35.027992 -30.128029 -0.88263595 118.55608 -22.110428 -140.92203 -33.087875 32.756126
-0.85403675 118.8774 -40.367081 -144.21127 -34.022606 31.099173 -22.119526 -160.64218
-21.996517 -139.43898 -33.947132 33.039268 -38.804478 -19.686527 -0.94713265 118.57038
-32.817314 31.394329 -22.094694 -159.19048 -0.98020214 118.66125 -36.045609 -103.22218
299004687.5 -36.695473 -58.792999 -0.89453179 112.32725 -22.472706 -149.4843 -32.371883 20.908449
-0.90150148 112.47618 -41.421139 -87.538658 -32.808887 27.929537 -22.409237 -162.81876
-22.31385 -147.91019 -32.905216 31.229845 -44.709145 -31.8946 -0.95472127 112.55473
-32.713356 22.263897 -22.236139 -164.22043 -0.9565478 112.21294 -36.990887 -105.33329
306815625 -37.532177 -69.030792 -0.89731783 105.93651 -22.413347 -156.701 -33.116352 15.794526
-0.87118167 106.04869 -38.681873 -119.59127 -33.250332 19.032145 -22.385792 -170.02365
-22.576517 -155.04356 -33.120293 17.550777 -47.763573 -46.836643 -0.96682012 105.81968
-32.624088 16.460339 -22.2735 -169.82777 -0.98132712 105.99438 -35.115158 -113.36686
314626562.5 -38.706089 -72.391808 -0.93520373 99.74337 -22.822708 -164.39243 -32.34063 8.3650007
-0.90975493 99.730972 -41.367516 -103.0114 -33.157093 16.487133 -22.526844 -176.00844
-22.629179 -162.22737 -33.152618 16.700056 -44.002888 -51.886845 -0.97584701 99.73867
-32.602856 10.106028 -22.591293 -174.83308 -1.0281694 99.778923 -34.928185 -118.79787
322437500 -41.464001 -58.712757 -0.93964744 93.453728 -22.820478 -172.06848 -32.836166 0.91143614
-0.91394675 93.246956 -44.491711 -93.001266 -33.493301 6.234313 -22.753532 179.15579
-22.795116 -169.76973 -32.966667 0.89257962 -51.657856 -67.94841 -1.0159175 93.197762
-32.671612 5.9797397 -22.792267 179.70203 -1.0311952 93.314064 -35.287514 -131.90488
330248437.5 -40.456631 -55.171322 -0.95336974 86.749077 -23.108749 -178.31726 -31.936008 0.82662135
-0.90517837 86.886726 -38.917355 -135.18195 -32.488911 -1.7466093 -22.892908 174.12289
-22.79261 -178.20131 -32.123009 2.359215 -47.463715 -54.073631 -1.038258 86.910339
-32.690529 -5.2211423 -22.81395 174.8497 -1.0529503 86.757736 -35.241684 -130.45049
338059375 -43.786705 -62.971256 -0.95075101 80.596687 -22.976282 173.6884 -32.055557 -8.6173992
-0.94042957 80.759987 -38.093185 -130.60831 -32.610744 -2.5899727 -22.765553 169.32036
-22.902063 173.80902 -32.245846 -6.1129127 -47.118713 73.901505 -1.0406072 80.441704
-32.076828 -5.1215668 -22.906019 169.00223 -1.0563408 80.741066 -33.722698 -123.63968
345870312.5 -45.444408 -58.036678 -1.006178 73.906174 -23.094782 165.07164 -31.579359 -16.024555
-0.95716137 74.489273 -35.433945 -148.20625 -32.073769 -14.187423 -22.989561 163.95895
-22.912563 165.002 -32.066334 -12.282849 -57.157578 63.161156 -1.0718876 74.1362
-31.584137 -15.442296 -22.87369 163.53235 -1.0675095 74.10128 -32.145065 -134.3092
353681250 -45.160095 -74.915459 -1.0087413 67.69722 -23.211855 158.00565 -31.597601 -22.655394
-0.95522881 67.863525 -35.245228 -131.79289 -31.619936 -21.649204 -22.920805 158.64703
-23.017788 157.74352 -32.212994 -17.838432 -42.715698 77.085564 -1.0623351 67.760414
-31.215803 -22.233475 -22.800697 158.28552 -1.0583544 67.814484 -33.266121 -136.58803
361492187.5 -41.819866 113.68269 -1.0121721 61.455475 -23.340176 150.48918 -31.188713 -28.604261
-0.97783738 61.539185 -36.048065 -151.80434 -31.84042 -27.682625 -22.980169 152.04607
-23.174952 149.92914 -31.185709 -27.37521 -39.639099 85.460991 -1.0711809 61.242496
-31.498486 -29.941664 -22.940487 153.56128 -1.0887668 61.398041 -32.229408 -145.37498
369303125 -41.692356 94.596123 -1.0305352 54.774742 -23.173204 142.72707 -31.235142 -32.64016
-0.98985112 55.104202 -33.923992 -158.0341 -31.98209 -35.600796 -23.031925 146.9514
-23.184938 142.31992 -31.038559 -36.132271 -39.450974 89.940056 -1.0832956 54.839703
-31.05978 -36.632908 -22.882889 147.2388 -1.152452 55.016777 -31.909658 -149.26076
377114062.5 -44.443546 67.554314 -1.0540268 48.467144 -23.292984 134.175 -30.752319 -40.976566
-1.001458 48.47633 -33.742348 -164.31311 -31.200085 -41.996796 -23.052206 143.04807
-23.088659 135.04442 -30.931669 -43.087959 -36.556572 70.23275 -1.1206485 48.544758
-30.969818 -41.37748 -22.881851 142.07349 -1.142373 48.640442 -32.306919 -158.80148
384925000 -38.443775 55.585911 -1.0510997 42.524986 -23.201685 125.7898 -30.928442 -49.053936
-1.0184687 42.2798 -34.176929 -168.99805 -31.209936 -47.402023 -22.661158 137.01367
-22.988428 126.75766 -31.317919 -46.894474 -38.646248 68.99868 -1.1263231 42.231438
-31.030216 -48.884529 -22.730829 137.91524 -1.1788272 42.172298 -30.957396 -164.42146
392735937.5 -39.875278 73.519936 -1.0953869 35.789452 -23.007494 118.05766 -30.691866 -57.818722
-1.0457411 35.976284 -32.243343 -170.89612 -30.50263 -55.011784 -22.636877 132.01379
-22.936279 117.86386 -31.076593 -54.671898 -34.239285 55.664623 -1.1344862 36.075268
-31.075089 -53.072857 -22.658316 132.12376 -1.1770917 36.03038 -31.459333 -170.84979
400546875 -38.275333 51.029728 -1.1393607 29.451258 -22.787733 113.43928 -30.785706 -61.413059
-1.080281 29.739935 -31.765018 178.38466 -30.786261 -62.930305 -22.801165 127.37578
-22.83186 111.63661 -30.793802 -60.382492 -34.172573 65.467735 -1.1341758 29.331476
-30.602449 -65.00721 -22.573528 125.84344 -1.1580992 29.457829 -30.336308 178.10007
408357812.5 -37.195995 60.7258 -1.1227746 23.235977 -22.807028 104.42741 -30.772589 -70.016205
-1.0557295 23.086306 -32.531513 -178.52548 -30.74999 -68.266579 -22.618168 120.6459
-22.792171 103.44698 -31.075871 -72.417862 -32.729443 41.294209 -1.1687492 23.031889
-30.704054 -70.935654 -22.579208 121.55095 -1.2018234 23.206808 -30.407301 172.30141
416168750 -34.995907 57.25478 -1.1340008 16.843987 -22.727512 95.820923 -30.91864 -83.516243
-1.0848695 17.011223 -34.458126 172.37413 -30.625813 -71.721893 -22.505241 116.43824
-22.56575 96.740494 -30.414911 -70.307869 -34.935154 25.765844 -1.1766731 16.647972
-30.3207 -79.789864 -22.512747 115.92976 -1.2020977 16.669363 -29.473852 167.52242
423979687.5 -33.514133 39.082874 -1.1594325 10.295724 -22.481817 90.00808 -31.019812 -80.045563
-1.1380948 10.566398 -33.031036 162.99196 -30.628769 -82.335251 -22.571724 109.31881
-22.57789 89.215538 -30.846451 -80.828377 -31.742476 27.986248 -1.2211467 10.5827
-30.915565 -84.180061 -22.354416 110.91711 -1.2337011 10.566899 -31.93005 152.8989
431790625 -32.09948 23.129646 -1.2101498 3.9153011 -22.450972 82.674553 -30.673603 -88.053726
