!Agilent Technologies,N5245A,MY51251349,A.09.33.09
!Agilent N5245A: A.09.33.09
!Date: Tuesday, September 29, 2020 11:37:21
!Correction: S11(Full 4 Port(1,2,3,4)) 
!S12(Full 4 Port(1,2,3,4)) 
!S13(Full 4 Port(1,2,3,4)) 
!S14(Full 4 Port(1,2,3,4)) 
!S21(Full 4 Port(1,2,3,4)) 
!S22(Full 4 Port(1,2,3,4)) 
!S23(Full 4 Port(1,2,3,4)) 
!S24(Full 4 Port(1,2,3,4)) 
!S31(Full 4 Port(1,2,3,4)) 
!S32(Full 4 Port(1,2,3,4)) 
!S33(Full 4 Port(1,2,3,4)) 
!S34(Full 4 Port(1,2,3,4)) 
!S41(Full 4 Port(1,2,3,4)) 
!S42(Full 4 Port(1,2,3,4)) 
!S43(Full 4 Port(1,2,3,4)) 
!S44(Full 4 Port(1,2,3,4)) 
!S4P File: Measurements: <S11,S12,S13,S14>,
!<S21,S22,S23,S24>,
!<S31,S32,S33,S34>,
!<S41,S42,S43,S44>:
# Hz S  dB   R 50
10000000 -19.715349 64.218765 -0.20251599 -14.845459 -37.626945 65.278435 -63.62133 -15.202684
-0.2650207 -15.513184 -20.045706 74.756302 -53.781395 67.370461 -35.299061 67.379456
-40.744057 67.234444 -45.849117 150.08714 -19.858711 51.493996 -0.28674772 -16.007351
-50.616077 58.529278 -41.786324 81.767189 -0.39820895 -14.96796 -19.557148 60.335281
17810937.5 -26.794289 28.607843 -0.25920081 -19.309504 -34.03587 69.693558 -55.061882 149.3333
-0.20786276 -19.379515 -25.017944 33.34766 -57.262192 -132.97301 -36.464005 47.991344
-34.327744 72.798042 -49.104469 164.75655 -23.142408 36.540684 -0.36368182 -20.553686
-53.000092 145.9451 -35.245979 67.138474 -0.40680748 -19.90155 -23.23151 40.721405
25621875 -26.360727 27.635309 -0.29108369 -26.758493 -33.450687 64.57386 -54.476196 105.95316
-0.29492211 -26.694582 -24.424129 12.193002 -50.625042 -168.32657 -33.107006 65.688049
-32.980732 62.320969 -63.634266 107.17004 -25.012756 24.729744 -0.40340674 -27.517792
-47.82555 139.30568 -32.874985 60.270012 -0.41430056 -27.205246 -24.370058 20.664745
33432812.5 -26.681643 6.1749563 -0.34294209 -32.621483 -30.422762 59.966362 -55.107052 -153.36676
-0.34908149 -33.346775 -28.640854 7.418324 -62.54353 105.65438 -30.529343 52.51096
-30.010567 58.327965 -49.657463 59.39661 -24.76412 7.0575924 -0.43869913 -33.670406
-65.079643 -158.2088 -30.437969 53.774502 -0.41761798 -33.77356 -26.718496 3.696131
41243750 -25.543463 -0.62057173 -0.29003456 -40.114605 -29.116056 45.929428 -51.095135 153.93558
-0.36460128 -40.619946 -27.295527 -8.3972101 -47.457783 -154.51712 -28.577007 49.037575
-29.128788 48.349968 -53.859329 -97.019051 -26.615559 -2.1523597 -0.43592826 -40.962658
-44.915981 -170.64992 -27.913483 46.57534 -0.47363606 -40.925865 -25.745974 -3.6864951
49054687.5 -26.738037 -18.888739 -0.33407149 -47.173298 -27.603817 39.739365 -56.994011 -178.45908
-0.36090997 -47.315186 -28.514721 -12.930317 -52.821148 -157.06247 -27.320997 41.35733
-27.244707 40.337044 -48.413425 -163.93703 -27.787899 -15.461955 -0.43762264 -47.888866
-53.873772 179.27194 -27.613562 44.179264 -0.48089418 -47.888634 -25.992203 -17.426624
56865625 -26.42522 -34.980392 -0.44229582 -54.569889 -26.102892 32.061356 -54.336739 -113.07363
-0.42494744 -54.589928 -27.938259 -26.476324 -79.389107 33.17918 -26.368446 35.143883
-26.716915 30.554087 -47.3353 -165.49763 -27.750586 -18.379108 -0.46293762 -54.894192
-47.276817 108.47886 -26.41223 32.434052 -0.46250683 -55.491272 -26.16976 -28.358335
64676562.5 -26.116989 -58.867706 -0.43090165 -61.956081 -25.494894 23.987823 -57.319248 161.17885
-0.42341462 -62.394829 -27.637686 -46.731419 -51.838333 -178.48352 -25.463409 30.243235
-25.19791 26.406456 -48.897774 142.7724 -27.689308 -35.064632 -0.48480523 -62.215797
-48.210411 -126.43325 -25.228479 30.433748 -0.51132029 -62.101967 -28.711777 -46.939648
72487500 -29.321623 -56.975163 -0.47156519 -68.977341 -24.921021 20.124311 -55.515503 -171.85759
-0.42959091 -68.993156 -29.567726 -45.206177 -54.553143 152.74492 -24.299927 21.070143
-24.590851 19.650408 -60.350792 166.87468 -27.966194 -36.988472 -0.50368166 -69.525612
-55.811012 -118.06271 -24.477058 19.971865 -0.52387965 -69.251495 -26.788927 -56.1688
80298437.5 -28.641504 -58.864792 -0.46986946 -76.677467 -24.187597 13.385656 -56.268852 153.99129
-0.46766412 -76.3629 -27.797607 -61.572224 -49.011749 -157.2065 -23.864529 16.443542
-23.907284 11.446446 -60.071411 -120.12929 -28.809544 -59.430256 -0.52760595 -76.596916
-48.294128 -165.53352 -24.148298 14.53033 -0.60622281 -76.500465 -27.157305 -61.508923
88109375 -28.548153 -68.56842 -0.4886187 -83.586174 -23.367405 5.3026052 -50.839775 -135.34256
-0.49371076 -83.377838 -28.480976 -75.416382 -55.760708 -108.41901 -23.318464 6.8791151
-23.333258 6.0817075 -47.8395 178.06868 -30.308275 -62.551384 -0.56309712 -83.772499
-47.948174 -141.28966 -23.105 6.9466386 -0.54653162 -83.640327 -28.37344 -70.173836
95920312.5 -28.480249 -72.731468 -0.5244261 -90.594002 -22.907364 -2.5081809 -49.549889 152.78503
-0.50632751 -90.691658 -30.130846 -69.084656 -50.90123 177.75581 -22.947788 -1.4605174
-22.645004 -1.3383113 -49.133129 -156.77522 -30.690147 -81.064545 -0.56660253 -90.830963
-56.717506 -161.10379 -22.792292 0.082206756 -0.58125275 -91.049004 -27.601589 -79.307396
103731250 -28.475245 -81.973877 -0.5563482 -97.991661 -22.349974 -10.24573 -50.423527 160.57748
-0.52722299 -97.876923 -30.932707 -93.801682 -47.108734 -156.41835 -22.358992 -6.5695295
-22.234198 -9.2895908 -49.213757 -169.23201 -32.686928 -82.180283 -0.58979279 -98.192352
-49.792053 -127.35478 -22.094435 -7.0105247 -0.60023797 -98.1464 -27.405109 -94.949394
111542187.5 -29.344278 -96.405396 -0.59214145 -105.09157 -22.228949 -16.3381 -45.050556 -157.05753
-0.5303207 -105.29404 -33.494034 -99.557442 -46.454262 -155.74312 -22.065731 -13.146611
-22.169579 -16.152777 -43.378529 -166.54466 -33.297409 -81.966789 -0.56252939 -105.12111
-49.758961 170.64642 -21.889067 -14.538884 -0.60510957 -105.07289 -29.393801 -92.718307
119353125 -30.048449 -116.39262 -0.56919879 -112.56361 -21.796453 -24.353121 -47.595837 -153.8696
-0.58679307 -112.54172 -30.570492 -104.80894 -45.984573 -161.2198 -21.783525 -21.437737
-21.750542 -22.986265 -49.97464 -170.30177 -33.183861 -80.688644 -0.63753551 -112.33456
-48.362007 -166.4832 -21.74255 -22.206972 -0.63800913 -112.30872 -28.977814 -105.19018
127164062.5 -31.469324 -101.40474 -0.55876857 -119.6301 -21.606283 -31.089731 -46.369228 -174.48611
-0.57201409 -119.45284 -32.563622 -107.45868 -43.553379 169.47176 -21.475035 -28.644258
-21.498373 -30.154696 -44.051617 163.47652 -38.405918 -107.99554 -0.66454965 -119.54778
-44.34005 178.68909 -21.540936 -28.578022 -0.70691311 -119.53275 -30.185148 -119.12029
134975000 -32.616699 -103.70538 -0.64365977 -126.62016 -21.281952 -38.047283 -44.532925 168.48108
-0.62533039 -126.69248 -33.024353 -118.17578 -43.42384 169.67229 -21.529013 -35.690613
-21.229713 -36.315563 -42.836376 -175.04539 -38.473274 -91.692673 -0.66846913 -126.63917
-44.894211 163.04837 -21.367493 -35.379242 -0.67265862 -126.60164 -30.110636 -118.05721
142785937.5 -33.887058 -122.04314 -0.6939435 -133.89867 -21.1884 -45.476379 -43.879646 160.35902
-0.64327562 -133.68439 -34.610291 -133.48802 -41.128792 155.63925 -21.097801 -42.559978
-20.989014 -45.571754 -42.252689 156.26154 -40.083858 -84.886383 -0.69112855 -133.69049
-45.116486 150.08897 -21.185492 -42.124325 -0.70606625 -133.69832 -31.957554 -125.29243
150596875 -32.571404 -116.38514 -0.71068168 -140.83656 -21.037798 -52.736473 -42.84713 147.28743
-0.64930868 -140.93007 -37.803043 -130.44077 -40.278015 151.60571 -21.157127 -49.006287
-20.893332 -52.201458 -41.747349 165.21594 -45.221596 -128.80615 -0.70223016 -140.81555
-43.481857 155.85869 -21.057665 -49.300926 -0.73810184 -140.86459 -30.762726 -130.20584
158407812.5 -34.996635 -146.87035 -0.70672244 -148.06073 -20.989517 -57.92902 -40.07494 150.39548
-0.65141445 -148.10612 -37.539165 -142.22476 -39.326534 154.23901 -20.91341 -57.068211
-20.882561 -58.414757 -40.284077 145.39973 -42.919567 -102.97665 -0.74636233 -148.10931
-42.171783 156.48575 -21.09943 -56.676151 -0.75051999 -148.07491 -32.257935 -144.27083
166218750 -38.465267 -131.26604 -0.7219097 -155.37907 -21.015541 -65.080612 -41.419209 142.25647
-0.682459 -155.18274 -37.669533 -112.41277 -39.882179 137.22308 -20.789679 -63.377724
-20.787603 -66.391403 -40.453407 135.02119 -59.59557 -83.052757 -0.75070691 -155.46375
-41.128471 138.07362 -21.01222 -63.942688 -0.78643924 -155.30128 -32.583748 -147.29924
174029687.5 -41.824085 -115.07988 -0.72911525 -162.58763 -21.022993 -72.665527 -41.023373 123.13729
-0.70587015 -162.0406 -45.332088 -77.654449 -39.894123 135.2948 -20.720968 -69.891197
-20.760065 -71.834183 -38.025665 128.97282 -42.997925 -32.000156 -0.73220527 -162.39671
-39.672714 125.50114 -20.989672 -69.663483 -0.8192333 -162.46535 -35.2925 -140.46346
181840625 -42.917942 -85.326416 -0.75238734 -169.54669 -21.032999 -79.540512 -39.70739 118.54352
-0.71609783 -169.60329 -40.420414 -80.856888 -39.593838 122.31947 -20.909262 -77.171936
-20.972734 -79.527184 -38.191727 117.10855 -38.331078 1.593917 -0.78843081 -169.46257
-39.279789 118.85355 -20.785648 -77.171082 -0.82721269 -169.52811 -36.758476 -141.4716
189651562.5 -38.032284 -89.76461 -0.77844179 -176.74194 -21.06838 -86.747437 -38.771484 113.09327
-0.71025413 -176.67354 -37.822346 -66.595932 -37.887146 105.66108 -20.932747 -84.831558
-20.877241 -87.328339 -38.355152 111.60228 -37.481773 -26.878498 -0.8141458 -176.6046
-38.680588 105.89123 -20.956505 -84.047417 -0.82016951 -176.51268 -40.05463 -127.28625
197462500 -35.510685 -102.54279 -0.78141147 176.1696 -21.151903 -94.359795 -39.17297 95.607956
-0.78342396 176.22269 -35.046242 -54.444603 -38.373619 98.016281 -21.132408 -91.435898
-21.078085 -93.556923 -36.930092 102.63399 -35.408493 -34.260666 -0.81285805 176.13927
-39.440159 98.618103 -21.095913 -90.874435 -0.83436829 176.22307 -39.628586 -135.01701
205273437.5 -36.059792 -111.23881 -0.75839943 168.83037 -21.190119 -100.98024 -38.089252 91.287025
-0.78859758 169.17395 -34.169888 -60.076454 -38.11488 87.632736 -21.121397 -98.441612
-21.170202 -100.50539 -37.492851 96.740082 -35.22681 -42.986038 -0.85364908 168.93997
-38.798634 85.777611 -20.999165 -98.066612 -0.81000394 169.06538 -39.227654 -119.09331
213084375 -37.680344 -102.02966 -0.7993232 161.87743 -21.271746 -107.50318 -38.053139 76.172653
-0.79428399 161.51015 -33.512932 -68.626945 -37.045124 76.880722 -21.53392 -104.42059
-21.270758 -106.86319 -37.11694 80.707573 -31.78047 -49.138893 -0.8244853 161.81694
-37.11528 86.101151 -21.328997 -104.73332 -0.88724804 161.72592 -40.90081 -116.61081
220895312.5 -36.270504 -113.76153 -0.82172668 154.44354 -21.646767 -115.34455 -38.000851 69.956116
-0.77759874 154.65948 -31.887173 -59.612473 -36.245361 74.069214 -21.453499 -113.18074
-21.400812 -114.31302 -37.544609 77.111351 -32.760685 -58.624218 -0.86359376 154.64679
-37.498863 72.324631 -21.411011 -111.83907 -0.87517065 154.86237 -38.130581 -115.09989
228706250 -35.311008 -104.40839 -0.81891155 147.45276 -21.793352 -121.67822 -37.924217 68.288582
-0.81909657 147.50175 -30.639551 -67.832397 -36.53244 60.88773 -21.519928 -120.01618
-21.57473 -121.57502 -36.752209 66.040009 -31.079784 -56.486187 -0.87719822 147.77948
-37.165192 67.163445 -21.622538 -119.60955 -0.89289474 147.38249 -36.225803 -111.02908
236517187.5 -36.321495 -97.671165 -0.84079272 140.27504 -22.013371 -128.92792 -36.375065 55.309109
-0.81755406 140.27209 -28.869289 -80.188904 -36.715538 52.762928 -21.640566 -127.11541
-21.72361 -129.29221 -35.087933 58.763657 -30.003838 -69.06765 -0.87525523 140.35568
-37.218575 56.163361 -21.919453 -126.72076 -0.92753923 140.58392 -35.216007 -114.21171
244328125 -34.221588 -103.20255 -0.86462176 133.24301 -22.163389 -136.17046 -36.494522 49.398792
-0.84040028 133.07259 -28.180576 -80.865501 -34.787918 45.448296 -22.135229 -132.83192
-22.011745 -136.22945 -35.079945 49.329777 -29.578638 -74.364006 -0.93250662 133.399
-36.869026 52.960667 -22.091141 -133.02069 -0.92095828 133.4442 -33.581474 -107.79165
252139062.5 -31.274986 -111.59805 -0.87438226 126.17193 -22.305492 -143.03261 -36.462353 43.988113
-0.87433338 125.87666 -28.348494 -92.833199 -35.324654 40.730141 -22.387203 -140.05762
-22.374607 -143.9521 -36.034168 38.399548 -28.428286 -83.725334 -0.93120092 125.95333
-35.184143 39.842091 -22.268524 -140.58788 -0.96839768 126.1383 -33.644974 -120.74017
259950000 -29.732471 -146.392 -0.90376616 118.65793 -22.486841 -149.20729 -36.183514 31.581293
-0.8804906 118.89447 -27.079184 -94.235863 -35.952465 30.28846 -22.536299 -148.56946
-22.506754 -149.21965 -35.388317 26.191902 -29.973148 -94.549545 -0.93230736 119.08715
-36.581631 25.991455 -22.452259 -147.6116 -0.90666485 118.98983 -31.706663 -110.6394
267760937.5 -34.570843 -151.6443 -0.90426123 111.66566 -23.05224 -156.9386 -37.855793 24.394449
-0.8646999 111.6645 -26.411764 -103.19153 -35.726124 20.817514 -22.774815 -154.59723
-22.784683 -156.7317 -35.625889 17.883741 -28.912195 -108.86167 -0.96818203 112.13014
-36.702824 26.572409 -22.722837 -154.43425 -0.95042008 112.02462 -31.197479 -127.20458
275571875 -32.368729 -151.15218 -0.94465715 104.49764 -23.231321 -163.83859 -36.054264 17.85438
-0.89782912 104.82417 -27.39024 -103.65741 -35.248165 12.157265 -23.205818 -162.37379
-23.138853 -163.55782 -34.961704 16.8389 -28.787004 -107.72042 -0.97011 104.77428
-36.366692 17.814291 -23.245939 -162.28558 -0.97573626 104.76885 -30.762939 -123.4794
283382812.5 -31.020071 -153.15494 -0.95749074 97.314476 -23.436518 -171.5347 -35.82576 10.039833
-0.90480494 97.711624 -25.494101 -114.64167 -35.093937 8.1743813 -23.58357 -169.56445
-23.324818 -170.82822 -34.853207 4.7877631 -28.154037 -114.26796 -0.96594381 97.452652
-35.964294 7.7235131 -23.344904 -169.59752 -0.99779898 97.534531 -31.561596 -134.23557
291193750 -32.039524 -161.30746 -0.95655179 90.247032 -23.651625 -177.37479 -35.488811 -1.1482345
-0.92262667 90.32872 -25.227737 -124.98885 -35.224201 -4.971355 -23.884823 -175.8204
-23.635305 -179.11601 -34.758995 -2.1184494 -27.751253 -122.57351 -0.96644175 90.400414
-35.315701 1.6500301 -23.662201 -175.77176 -1.0100073 90.434807 -29.310379 -139.2682
299004687.5 -30.439734 179.34267 -0.95318347 83.101372 -24.019285 173.0163 -35.504528 -6.8540735
-1.0010586 83.252365 -24.895081 -124.10049 -35.034904 -12.291337 -24.082911 175.39323
-23.951712 175.90007 -35.489788 -7.6652508 -28.560282 -138.16437 -0.9984386 83.470581
-35.670147 -6.7179289 -23.994772 176.89117 -0.99739981 83.327095 -30.422216 -143.60898
306815625 -30.228247 167.57349 -0.98166448 75.837273 -24.530775 166.75024 -35.15575 -17.828083
-0.94679922 76.078247 -24.782366 -137.61447 -34.744316 -13.367974 -24.27426 169.20705
-24.247414 167.1994 -35.277313 -16.478987 -28.829809 -144.4655 -1.0044965 76.335526
-35.138443 -12.685615 -24.333672 167.43469 -1.0430958 76.210106 -29.411037 -150.38614
314626562.5 -31.387878 160.67688 -0.99035424 68.715363 -24.651173 161.62776 -35.585697 -22.409296
-0.97523004 68.850838 -25.394258 -138.75145 -35.955379 -22.807674 -24.753294 160.74644
-24.688988 162.01701 -34.667107 -25.748257 -28.796938 -150.13786 -1.0319545 69.129501
-35.560493 -23.728662 -24.79294 162.74327 -1.0607191 69.109695 -29.47998 -161.61414
322437500 -33.455509 145.44908 -1.0117363 61.818069 -25.347544 153.70416 -35.541325 -26.484055
-1.021849 61.610931 -25.769602 -140.87704 -35.12064 -37.730473 -25.261154 152.64372
-25.189905 154.55992 -34.608921 -30.935677 -28.945589 -163.05179 -1.062817 61.886848
-35.353214 -30.448683 -25.221373 154.44983 -1.0653847 62.054489 -30.010496 -172.22656
330248437.5 -32.775436 139.67339 -1.0289141 54.455479 -25.356333 145.78818 -35.63525 -36.939186
-0.98263431 54.461605 -25.498291 -152.52791 -34.490971 -36.832916 -25.711561 147.16167
-25.405621 148.25443 -34.948631 -35.618885 -29.658113 -169.14575 -1.0679023 54.709332
-35.238281 -38.660286 -25.298485 147.634 -1.0806077 54.68539 -30.53833 -173.8857
338059375 -32.230217 126.84621 -1.0291394 47.226139 -25.958467 139.73984 -35.857216 -46.528294
-1.0418073 47.682682 -25.163517 -158.47523 -34.789753 -42.46072 -25.915344 139.22739
-26.1171 139.92809 -34.625671 -50.119621 -30.954548 -178.57068 -1.0895326 47.598499
-35.220196 -42.925106 -25.962263 140.69553 -1.1348255 47.892395 -29.839741 -176.12831
345870312.5 -33.480946 118.14004 -1.0823642 40.227589 -26.44932 132.01556 -34.550243 -49.786152
-1.0570878 40.577183 -25.671879 -168.42506 -34.412399 -51.600407 -26.337706 132.24188
-26.282698 133.75589 -34.365822 -51.595188 -30.463243 178.60156 -1.0955312 40.640945
-35.060017 -50.288544 -26.23802 132.01753 -1.1129439 40.548363 -30.078341 172.39618
353681250 -33.772816 114.85043 -1.0844946 32.823818 -26.504192 126.82437 -36.293785 -55.308762
-1.051169 33.195621 -25.719515 -168.32536 -35.684937 -59.653194 -26.312408 127.26947
-26.585939 127.0902 -34.111092 -60.817692 -31.550325 160.37019 -1.1182132 33.421925
-35.603451 -53.541676 -26.649214 124.8383 -1.1273088 33.584698 -30.599152 169.63956
361492187.5 -31.432638 83.38752 -1.0801418 26.291824 -27.422281 120.72881 -35.026382 -63.761024
-1.1039048 26.275269 -26.373705 -178.89897 -34.658493 -67.349442 -27.258465 117.58837
-27.105215 119.50394 -34.297901 -68.60289 -32.025955 149.86809 -1.1259398 26.243805
-35.097847 -65.928459 -26.914545 117.90245 -1.1418 26.235495 -30.754599 160.5645
369303125 -32.968773 66.880882 -1.1204944 18.597626 -27.767908 112.7419 -35.562309 -67.963905
-1.072221 19.208292 -26.238382 174.39488 -34.39151 -71.272369 -27.481422 110.00804
-27.751928 112.29893 -34.163044 -73.34491 -33.072018 144.47681 -1.1245197 19.124435
-34.650642 -71.174385 -27.608049 111.06766 -1.1877893 19.152353 -31.438231 156.4808
377114062.5 -35.641716 53.515308 -1.1576046 11.632748 -28.285091 107.67865 -34.247822 -75.526321
-1.1129286 11.679587 -26.482361 175.30359 -34.102982 -81.136658 -28.149229 104.24734
-28.06706 107.28265 -34.000362 -82.452805 -33.542587 137.12856 -1.1498767 11.962648
-33.912262 -79.771027 -27.926146 105.56907 -1.1848139 12.056214 -33.39064 154.14821
384925000 -35.372238 34.669308 -1.1305029 4.7273326 -28.688517 101.93412 -34.234524 -83.275986
-1.0968738 4.486073 -27.370678 172.99399 -33.972851 -87.681465 -28.400249 96.810478
-28.543068 100.18824 -33.872013 -87.495453 -33.828659 134.85263 -1.1626234 4.7082944
-34.56538 -83.154846 -28.69145 96.747261 -1.2125148 5.0120306 -32.832199 148.59268
392735937.5 -35.353088 39.544067 -1.1751689 -2.5583942 -29.280884 94.494949 -34.417885 -92.674927
-1.1131834 -2.5991745 -26.956928 162.88193 -33.644833 -94.869148 -29.116774 88.443962
-29.221167 95.380234 -34.062317 -94.175453 -36.792416 118.90553 -1.1827319 -2.2297275
-34.223461 -88.783669 -29.236448 89.014183 -1.2204748 -2.1342843 -34.521271 149.45593
400546875 -35.634243 13.406284 -1.1431584 -9.6426926 -29.390892 87.440178 -34.328449 -100.38438
-1.147925 -9.8005629 -28.096716 159.61673 -34.425526 -101.98527 -29.297676 80.093277
-29.937822 88.055038 -32.994804 -101.87598 -36.530994 108.23096 -1.2020342 -9.5739689
-33.80085 -97.921875 -29.967394 81.422302 -1.1840684 -9.5375433 -34.497723 128.61736
408357812.5 -34.86137 15.175509 -1.1588936 -16.886669 -30.810268 81.936615 -34.273098 -104.92608
-1.144004 -16.7481 -28.610109 157.77188 -33.94286 -105.21126 -30.422913 70.68206
-30.16749 85.524918 -33.05629 -106.17159 -41.807796 103.28806 -1.2110301 -16.575863
-33.970364 -105.75056 -30.195463 73.41951 -1.2557564 -16.42803 -36.888687 132.47321
416168750 -33.864178 -2.5644288 -1.1899532 -23.999626 -30.936228 78.268082 -33.599438 -118.55695
-1.165845 -23.801289 -29.976522 163.34685 -33.958115 -119.62006 -31.134903 67.929741
-30.312929 79.568535 -33.429443 -112.0033 -40.853687 141.75233 -1.2330258 -23.63349
-33.796661 -111.47592 -30.809725 67.47683 -1.2331007 -23.808208 -38.676529 132.69881
423979687.5 -33.577854 -32.869667 -1.1735526 -31.150284 -32.07975 74.252815 -33.578358 -118.99072
-1.2095879 -30.992868 -29.508141 155.16423 -33.618443 -123.10098 -32.743156 64.049133
-31.49136 71.410088 -33.347744 -119.46082 -47.128063 134.78049 -1.2324194 -30.709635
-33.638775 -119.65177 -32.035664 60.800888 -1.2560855 -30.666498 -44.627014 171.5508
431790625 -32.270859 -50.42947 -1.2618629 -38.402042 -32.538357 64.182678 -33.577015 -128.88957
