!Agilent Technologies,N5245A,MY51251349,A.09.33.09
!Agilent N5245A: A.09.33.09
!Date: Wednesday, September 30, 2020 16:31:15
!Correction: S11(Full 4 Port(1,2,3,4)) 
!S12(Full 4 Port(1,2,3,4)) 
!S13(Full 4 Port(1,2,3,4)) 
!S14(Full 4 Port(1,2,3,4)) 
!S21(Full 4 Port(1,2,3,4)) 
!S22(Full 4 Port(1,2,3,4)) 
!S23(Full 4 Port(1,2,3,4)) 
!S24(Full 4 Port(1,2,3,4)) 
!S31(Full 4 Port(1,2,3,4)) 
!S32(Full 4 Port(1,2,3,4)) 
!S33(Full 4 Port(1,2,3,4)) 
!S34(Full 4 Port(1,2,3,4)) 
!S41(Full 4 Port(1,2,3,4)) 
!S42(Full 4 Port(1,2,3,4)) 
!S43(Full 4 Port(1,2,3,4)) 
!S44(Full 4 Port(1,2,3,4)) 
!S4P File: Measurements: <S11,S12,S13,S14>,
!<S21,S22,S23,S24>,
!<S31,S32,S33,S34>,
!<S41,S42,S43,S44>:
# Hz S  dB   R 50
10000000 -19.406591 60.105686 -0.1035618 -15.821476 -40.212162 82.406548 -41.097412 2.2384243
-0.20348011 -16.640827 -19.241318 72.007584 -41.962379 -134.25203 -39.639751 70.476067
-41.648983 61.144947 -45.418232 160.24203 -20.696262 53.27652 -0.24237378 -17.525597
-44.92194 -179.12604 -34.570747 70.054314 -0.42664927 -16.390001 -20.034554 58.586296
17810937.5 -26.501562 31.906509 -0.3283782 -22.474245 -32.481724 67.549332 -47.185009 -178.59215
-0.17622343 -22.65498 -23.935398 34.737377 -46.183937 -165.56053 -31.678017 62.314857
-32.989037 69.897728 -50.81287 105.03436 -23.377277 34.677425 -0.38384187 -23.603432
-56.68029 116.70974 -31.942646 62.996857 -0.45055097 -23.138603 -22.379036 36.0653
25621875 -25.576359 23.603453 -0.30958587 -31.258316 -28.959806 61.489803 -54.317307 -179.25635
-0.31368971 -30.773735 -23.887911 14.72277 -53.436436 149.67734 -30.010094 63.488731
-28.977581 59.319702 -50.640884 45.27523 -24.361874 23.907364 -0.40084565 -31.773008
-45.917305 122.57807 -29.715595 52.803036 -0.44520122 -31.042046 -23.856922 19.081573
33432812.5 -26.184053 2.3282797 -0.30962759 -38.471092 -26.835045 52.944874 -57.109268 153.85588
-0.34656194 -38.692146 -27.54896 9.7052956 -59.411144 95.592506 -27.598606 50.215137
-27.077171 49.677029 -49.86084 99.268425 -24.415283 4.2173109 -0.45698833 -39.566353
-51.873127 98.266876 -27.288179 45.711044 -0.4834111 -39.241585 -25.200653 5.0890703
41243750 -25.171532 -7.200366 -0.36914757 -47.078461 -25.322849 44.732376 -49.02216 122.50485
-0.33677712 -47.310585 -26.024469 -5.5683389 -47.857647 83.634682 -25.040016 40.722324
-25.181126 43.877701 -44.617451 172.48686 -26.040798 -8.3447237 -0.45851129 -48.036907
-50.917145 112.8001 -25.641905 39.24379 -0.5114522 -47.963139 -24.958576 -4.7409081
49054687.5 -27.292725 -25.953072 -0.35559747 -55.272022 -23.958126 39.506069 -50.662125 137.40611
-0.38203436 -55.747047 -27.089024 -8.7782288 -48.559341 78.330727 -24.436144 28.928068
-23.869337 36.208889 -56.319221 79.662865 -26.956459 -15.75741 -0.50989795 -56.197689
-53.214294 141.53302 -24.011168 29.926832 -0.54279065 -55.98428 -25.331535 -15.981859
56865625 -26.434071 -41.490772 -0.4943082 -63.85331 -23.142105 31.45907 -49.263084 52.397362
-0.42575306 -63.72858 -26.763306 -23.285902 -56.080585 -15.3548 -23.273781 19.297625
-22.959372 30.935724 -54.803841 141.21562 -27.93737 -27.080418 -0.51164591 -64.278976
-49.978336 43.773464 -23.050442 20.888966 -0.52984774 -64.478371 -25.891459 -26.969194
64676562.5 -26.92065 -66.069725 -0.44951537 -72.507065 -22.461769 22.005703 -48.383389 12.050843
-0.45234725 -72.654541 -26.487232 -46.107548 -51.255463 30.233242 -22.291216 10.694332
-22.214342 22.164577 -61.702888 -174.11703 -27.883884 -42.664051 -0.5435065 -73.052032
-58.870178 6.2526546 -22.426939 12.633876 -0.54355931 -72.832176 -27.368341 -39.88644
72487500 -31.492304 -66.521942 -0.52265197 -80.818237 -21.50131 14.491511 -48.724144 -63.371876
-0.45547241 -80.837631 -28.482328 -43.203964 -59.216938 78.738289 -21.837524 3.1014884
-21.390226 13.697827 -52.46175 -120.97769 -28.358517 -52.055775 -0.56546474 -81.223122
-67.434792 80.490601 -21.78005 2.6885164 -0.61018115 -81.541588 -27.129726 -50.934898
80298437.5 -29.921116 -66.078407 -0.53254235 -89.300682 -21.289907 7.7164106 -52.326786 -163.3148
-0.51821029 -89.626663 -26.812233 -63.137981 -60.955372 -127.88387 -21.508406 -6.0024676
-21.05938 5.7961626 -55.711224 -76.99424 -30.494093 -71.339783 -0.59196252 -89.827232
-55.395645 -103.54973 -21.370104 -6.2595754 -0.66002321 -89.658272 -27.049263 -60.768681
88109375 -31.307928 -82.741455 -0.58093971 -97.832787 -20.700808 -1.4447063 -67.614876 -41.345875
-0.51417506 -97.815781 -27.48806 -79.191589 -55.49448 -34.680859 -20.883804 -13.612301
-20.592823 -0.74626487 -56.055534 -34.659454 -32.067757 -80.809723 -0.6361903 -98.240456
-55.746788 -75.870552 -20.739431 -15.137074 -0.61866063 -98.251465 -27.775866 -70.603157
95920312.5 -32.232471 -90.633995 -0.57851279 -106.44962 -20.429491 -8.8372087 -53.695282 -57.810272
-0.53889555 -106.2132 -28.46315 -75.379448 -53.427578 -114.00054 -20.728401 -24.18536
-20.491295 -7.6096854 -47.450298 -105.02831 -33.419918 -105.84544 -0.64505893 -106.66081
-51.0229 -98.48996 -20.344551 -22.293259 -0.66831392 -106.85706 -27.427654 -86.269768
103731250 -33.256084 -111.14436 -0.60171336 -114.81789 -20.351585 -16.819929 -50.909889 -79.191505
-0.54875183 -114.82581 -30.06921 -96.1632 -49.598011 -137.59207 -20.342072 -32.071632
-20.045523 -16.251425 -48.920338 -161.45525 -34.959267 -123.87859 -0.66276157 -115.27241
-49.230492 -105.74882 -20.371758 -32.681232 -0.69310158 -115.09542 -28.83349 -102.71184
111542187.5 -34.56892 -140.00784 -0.64740938 -123.24238 -20.171865 -22.300533 -46.745617 -132.83578
-0.59027016 -123.43365 -31.62812 -104.62153 -48.071884 -119.70776 -20.311485 -41.383179
-20.11713 -22.417858 -46.124882 -144.45161 -37.164005 -126.55893 -0.67908043 -123.51057
-46.654999 -138.41476 -20.290157 -40.69199 -0.66338664 -123.53451 -29.927137 -101.24938
119353125 -34.449364 179.31148 -0.63339776 -131.83217 -20.168022 -32.255009 -44.471004 -157.43309
-0.64813453 -131.70068 -29.590834 -121.97592 -46.366043 -130.75543 -20.282673 -50.395958
-20.055954 -30.614571 -47.392971 -165.86581 -37.813282 -141.63429 -0.7343595 -131.92938
-48.595547 -156.47493 -20.022966 -49.30957 -0.71892518 -132.00954 -30.78286 -116.98505
127164062.5 -41.69223 164.64117 -0.68105495 -140.1676 -20.112898 -39.537357 -45.732525 166.54282
-0.6320563 -140.19171 -31.462244 -132.83936 -47.292236 -154.69495 -20.198759 -58.478989
-19.970461 -39.003872 -42.507023 -172.65039 -37.832302 140.79376 -0.77281123 -140.39774
-46.37582 164.10614 -20.202965 -58.353981 -0.80468762 -140.37793 -32.644211 -137.08932
134975000 -41.997086 115.81007 -0.68752587 -148.38756 -20.157263 -46.860348 -45.657883 175.0202
-0.67446983 -148.47852 -31.829578 -147.02121 -46.193119 -174.60573 -20.374273 -67.269684
-20.151512 -46.774986 -48.157806 178.11661 -39.863934 133.38062 -0.77705491 -148.67374
-45.532207 177.8495 -20.077652 -67.238861 -0.79833454 -148.79381 -33.744343 -141.71303
142785937.5 -35.912605 94.147804 -0.74399447 -156.98254 -20.382002 -54.682655 -44.035995 152.69528
-0.70917583 -156.8914 -32.675587 -169.48499 -43.685448 160.6252 -20.560677 -75.697411
-20.251287 -55.044868 -45.314075 151.20294 -38.09473 107.13864 -0.79488534 -157.1617
-42.25848 158.07121 -20.38735 -75.420784 -0.79155546 -157.14392 -36.19492 -159.95129
150596875 -37.020195 84.706078 -0.75916338 -165.4034 -20.766371 -62.50132 -41.984764 157.0414
-0.6795606 -165.35512 -35.471024 170.42285 -41.082657 146.27112 -20.926258 -85.09716
-20.496321 -61.934811 -41.448551 146.49789 -33.107735 88.230629 -0.80855185 -165.41386
-43.29097 144.50677 -20.727379 -85.133415 -0.81462127 -165.61342 -35.412712 179.35059
158407812.5 -30.789181 69.826958 -0.80005735 -173.8232 -21.076874 -70.378563 -40.785484 137.27132
-0.69787753 -173.66568 -35.297005 149.22038 -41.695732 142.98004 -21.193279 -92.378609
-21.027857 -69.148521 -41.451862 137.03546 -33.46896 79.722298 -0.84747702 -174.02844
-41.387737 140.96045 -21.104923 -92.586632 -0.83999062 -174.14819 -37.604538 150.98328
166218750 -30.326101 45.625332 -0.76522559 177.81339 -21.505348 -77.435333 -40.323112 123.41826
-0.74716306 177.84914 -36.500042 151.00221 -40.400345 127.80803 -21.765882 -101.37241
-21.376072 -76.44339 -40.243706 136.14551 -29.639212 64.643311 -0.87338269 177.61064
-40.603096 129.00922 -21.659395 -101.56538 -0.85594231 177.24347 -37.164886 122.60773
174029687.5 -29.215586 35.946499 -0.79775482 169.44539 -21.946636 -84.704582 -39.532055 115.02918
-0.78995246 169.50169 -38.955269 113.44893 -40.977562 112.2636 -22.168642 -110.22383
-22.07053 -84.400993 -39.539738 112.59663 -29.679266 48.261154 -0.84293985 169.06851
-39.362335 101.26925 -22.017887 -109.86953 -0.91613835 169.2668 -39.845608 96.342384
181840625 -28.003141 20.418385 -0.78775358 161.02849 -22.709347 -92.388618 -39.871487 96.666298
-0.76208019 160.78914 -37.162231 92.828995 -39.884541 106.33695 -22.868521 -117.91133
-22.571054 -90.935783 -39.235832 103.17834 -28.09786 31.24148 -0.92253631 160.92422
-38.996284 95.025925 -22.685062 -118.06587 -0.94181341 160.80382 -37.465759 68.41246
189651562.5 -27.97208 8.3001633 -0.86038661 152.39139 -23.360729 -99.818321 -38.626575 83.891388
-0.78282857 152.60832 -36.145096 80.989571 -39.762703 92.192635 -23.46409 -126.65868
-23.201437 -99.434547 -40.041145 89.509819 -28.162491 27.06315 -0.90137857 152.52908
-40.231789 89.394302 -23.303297 -126.14443 -0.92354441 152.43782 -36.260483 35.19051
197462500 -28.560913 3.0988517 -0.85316586 144.09828 -24.284433 -106.51846 -39.183151 67.914925
-0.82781124 144.28842 -35.77042 44.864864 -38.288383 80.739197 -24.157349 -134.13358
-24.042427 -106.03271 -38.992699 74.295387 -27.352053 16.888336 -0.91642964 143.98036
-39.703533 79.388412 -24.122583 -134.65126 -0.95446354 144.00758 -33.304893 32.314983
205273437.5 -27.46524 -0.97809547 -0.8127448 135.74004 -25.477373 -116.24943 -38.775635 61.657204
-0.81916827 136.03946 -33.179432 42.477577 -39.122326 61.499393 -25.230667 -141.05508
-25.156355 -113.72057 -37.983795 71.578735 -27.118349 10.318192 -0.93955588 135.50548
-37.61631 63.469109 -25.347601 -140.09161 -0.93567604 135.77672 -32.557262 14.688942
213084375 -26.573906 -8.5219803 -0.88599753 127.36996 -26.610672 -122.19984 -39.026993 55.486626
-0.86513084 127.26482 -34.654713 20.402924 -38.191578 62.163593 -26.098795 -147.98271
-26.088663 -122.03656 -38.57177 63.957031 -26.791153 -5.945642 -0.95660877 127.19383
-39.31044 51.573364 -26.613459 -149.17769 -0.9834519 127.00141 -30.684925 8.6613312
220895312.5 -26.764952 -19.233757 -0.88920969 118.62551 -27.55674 -129.33763 -39.03611 44.611431
-0.82576793 119.01364 -31.236368 8.7417612 -38.971611 49.169178 -27.406336 -154.3959
-27.298889 -127.83144 -37.976494 40.610958 -26.742874 -7.1295552 -0.97051275 118.54927
-37.796486 46.151871 -27.695522 -153.66078 -0.97550195 118.75508 -30.071302 -1.5009396
228706250 -26.268972 -33.850544 -0.91409326 110.22375 -28.891699 -136.88536 -38.090435 33.345226
-0.8701086 110.27522 -33.215836 -9.9361906 -38.498367 35.945293 -28.825916 -160.24237
-28.831493 -136.42569 -37.630856 31.993368 -26.08934 -18.033272 -0.98626006 110.33725
-38.652264 39.476795 -28.7691 -161.60934 -1.0160842 110.28221 -30.359121 -14.101589
236517187.5 -25.604733 -42.900944 -0.92102468 101.93513 -31.157597 -143.89647 -37.595264 23.941011
-0.87926024 101.95437 -33.889687 -12.539443 -38.261806 25.775965 -30.534334 -167.33926
-30.950689 -142.42973 -38.152943 25.307474 -26.089386 -27.443041 -1.0049894 101.88734
-37.802124 21.793329 -30.607664 -164.0304 -1.0217779 102.02197 -29.534639 -23.841391
244328125 -27.278728 -59.151493 -0.945871 93.432358 -33.092751 -148.71136 -37.587803 13.098307
-0.91348475 93.668594 -33.090439 -38.803101 -37.532547 13.046499 -32.482048 -168.75728
-33.825294 -151.42931 -38.091236 19.132351 -26.642828 -39.047195 -1.0361754 93.477066
-37.194515 10.492734 -32.769001 -167.3416 -1.0382923 93.615211 -29.028923 -40.461033
252139062.5 -27.103283 -69.699348 -0.97212511 85.05555 -37.128582 -158.48982 -37.097439 3.7480831
-0.97864139 85.170982 -32.557823 -34.413231 -37.352821 9.2555618 -35.444546 -167.53435
-36.470306 -155.85791 -38.567699 10.6158 -26.743061 -44.872398 -1.0471779 84.970345
-39.382961 2.1201439 -34.164059 -157.26489 -1.0708575 85.105148 -28.706778 -44.512611
259950000 -29.331863 -66.049873 -1.0257671 76.843246 -41.157234 -155.19292 -37.911194 -4.1427908
-0.90768671 76.839409 -32.765274 -61.060143 -37.919956 -2.7785685 -37.595673 -160.99226
-42.570892 -165.12636 -39.216763 -3.1651776 -26.301716 -49.6866 -1.0480561 76.668922
-37.48917 -1.9663866 -37.109291 -155.02769 -1.0585836 76.495049 -27.664942 -56.420158
267760937.5 -26.805222 -71.507706 -0.98326445 68.347313 -58.521713 -86.869148 -38.202652 -18.718746
-0.95013481 68.269081 -32.113216 -62.203682 -38.236343 -17.465216 -37.976372 -142.66875
-58.642147 -127.83929 -37.814079 -8.8949127 -28.040052 -55.584946 -1.0852923 68.329681
-36.827702 -13.731004 -38.575745 -136.98085 -1.0790597 68.237938 -28.452253 -62.319958
275571875 -28.537266 -90.951691 -1.0361971 59.68203 -46.254105 29.275816 -37.023849 -21.283379
-0.95807773 60.204136 -31.601126 -66.619011 -37.287231 -22.631182 -36.963531 -122.03268
-48.100197 -16.165619 -37.89883 -22.075315 -27.067459 -67.419182 -1.0734578 59.833313
-38.287876 -17.605251 -37.899982 -119.87006 -1.1239958 59.801205 -27.388914 -77.359306
283382812.5 -28.822214 -106.47145 -1.0451578 51.442963 -39.091557 -22.052755 -37.756672 -32.882515
-1.0114826 51.577595 -33.824272 -91.811913 -36.791935 -25.034201 -35.589462 -110.07753
-39.406418 -24.960356 -37.572575 -24.679623 -27.92598 -76.9823 -1.1024261 51.461052
-37.119251 -24.210648 -35.224251 -117.67211 -1.1165195 51.394375 -27.060314 -80.598534
291193750 -28.820078 -112.89333 -1.0788976 42.892559 -35.327457 -24.170376 -37.11742 -43.157112
-1.0159786 43.170059 -34.887711 -92.89476 -36.61607 -39.898838 -33.481937 -108.27153
-35.594154 -17.395542 -36.752285 -40.525005 -28.456722 -90.299141 -1.132468 43.119755
-37.087006 -39.004711 -33.886299 -108.49425 -1.1567594 42.945011 -28.015709 -92.915916
299004687.5 -32.216507 -116.49967 -1.0559834 34.483482 -32.858917 -27.471981 -35.834034 -42.006218
-1.0906482 34.745308 -32.884121 -121.46362 -36.800365 -45.115089 -31.93712 -107.0667
-33.396885 -25.979542 -37.784225 -51.9884 -28.840914 -84.144852 -1.1533295 34.647305
-36.247108 -48.680695 -32.664375 -108.98178 -1.152151 34.66785 -27.624285 -99.906693
306815625 -33.435802 -130.07831 -1.1041138 26.17259 -31.263884 -37.051998 -36.615738 -58.776695
-1.0574108 26.386545 -36.338463 -127.2723 -36.421238 -53.481613 -30.40904 -110.4994
-31.529387 -39.264328 -36.494759 -57.015144 -29.533688 -94.580002 -1.1460866 26.283985
-37.754135 -56.313324 -30.949682 -112.08093 -1.1825366 26.184929 -28.033171 -107.64912
314626562.5 -35.075359 -135.80998 -1.1137278 17.864538 -29.977962 -45.644234 -37.800388 -61.588001
-1.0824054 17.83462 -33.702793 -133.25256 -37.116833 -67.58445 -29.61776 -120.36674
-29.692751 -42.908546 -36.831028 -63.884121 -30.596958 -102.75085 -1.1901493 17.855251
-36.269733 -65.897514 -29.68243 -119.06118 -1.2360127 17.859867 -28.835453 -112.74369
322437500 -34.009056 -140.62146 -1.1173904 9.6438932 -28.719673 -52.417961 -37.023079 -78.102623
-1.0964532 9.4717798 -33.68124 -138.96156 -36.620724 -73.163826 -28.670609 -122.70906
-28.799818 -52.553852 -36.579021 -72.048233 -31.992815 -102.78463 -1.2231085 9.3836756
-36.814335 -75.272957 -28.590216 -123.69441 -1.2392385 9.5017576 -28.854694 -123.8361
330248437.5 -35.707394 -172.90796 -1.1585118 1.0238861 -27.949032 -61.527664 -36.341801 -85.254166
-1.106276 0.91454017 -36.16925 -153.81479 -35.925434 -85.607567 -27.695534 -131.12192
-27.847082 -59.450779 -36.837597 -79.538643 -32.243729 -111.93648 -1.2460858 1.1400265
-36.481121 -81.186172 -27.458879 -131.81267 -1.2651172 0.98465919 -28.851267 -130.78519
338059375 -38.766495 174.44408 -1.1749763 -7.3724608 -27.331905 -68.355553 -36.23077 -93.181473
-1.1656743 -7.1257973 -35.954552 -171.39871 -37.429173 -89.217178 -27.068972 -138.29123
-27.061613 -69.585831 -36.065575 -87.895248 -31.276182 -113.84621 -1.2463534 -7.3799033
-36.182606 -85.327812 -27.086752 -136.64249 -1.2934798 -7.3166499 -29.441914 -142.00388
345870312.5 -37.828751 147.89113 -1.2248049 -16.256392 -26.684608 -78.291153 -35.627232 -101.80703
-1.167945 -15.41556 -39.09494 176.36755 -36.971794 -94.695999 -26.219 -144.33995
-26.070549 -76.493042 -35.855793 -97.938339 -33.812725 -125.19801 -1.2835058 -15.719416
-36.302727 -96.475136 -26.254961 -143.21638 -1.2887639 -15.635712 -29.841974 -150.57475
353681250 -38.117863 130.3235 -1.2253768 -24.16736 -25.98348 -87.422272 -35.357845 -107.7861
-1.1781732 -24.066214 -36.052555 157.61122 -35.97694 -106.78332 -25.573879 -152.46016
-25.714134 -84.495605 -36.902931 -107.37486 -33.297337 -127.28212 -1.289374 -24.028942
-35.59914 -104.2906 -25.654554 -150.51988 -1.2957436 -23.981178 -30.358812 -160.41132
361492187.5 -48.721821 120.04803 -1.2492082 -32.177544 -25.249561 -94.655746 -35.686333 -115.13788
-1.2255832 -32.404152 -39.490593 146.42438 -34.978531 -114.01235 -25.421581 -159.55664
-25.377274 -95.01255 -36.301258 -111.11607 -34.079456 -125.21513 -1.3118157 -32.490959
-35.587276 -111.64148 -25.27647 -158.72729 -1.3268064 -32.510193 -30.992952 -165.13216
369303125 -45.9758 140.00662 -1.2697145 -41.003407 -24.880501 -103.91032 -35.986649 -124.64899
-1.2215053 -40.672421 -39.650436 124.06519 -35.457848 -121.40876 -25.020977 -166.54211
-24.878479 -102.81801 -35.309448 -123.95013 -34.6287 -130.698 -1.3327734 -40.824986
-35.325024 -126.92295 -24.834606 -166.09306 -1.3569795 -40.886494 -30.765051 -175.42174
377114062.5 -42.530212 106.67938 -1.3006527 -49.420033 -24.414419 -111.32621 -34.646503 -129.39735
-1.2404405 -49.34845 -39.097515 118.04292 -35.231449 -127.31348 -24.430389 -172.34467
-24.446527 -112.50711 -35.839336 -133.20575 -35.914555 -147.10246 -1.3545713 -49.278599
-35.662613 -135.33025 -24.395374 -172.71202 -1.3683888 -49.227547 -30.489902 179.63387
384925000 -42.352348 89.111458 -1.2936512 -57.575417 -24.030983 -121.94858 -35.682613 -142.06616
-1.2437136 -57.632679 -37.731483 113.08102 -35.068848 -137.01367 -23.998653 179.61304
-24.103283 -121.91684 -35.616673 -141.04823 -36.888466 -154.96758 -1.3718843 -57.703548
-35.521667 -140.56747 -23.919416 179.6674 -1.4069709 -57.726635 -31.829163 169.80101
392735937.5 -41.864033 45.024841 -1.3650517 -66.123619 -24.019497 -130.45139 -35.433044 -149.16756
-1.2776306 -66.071121 -37.439163 78.774849 -36.116146 -145.85478 -23.767551 171.22862
-23.62204 -131.19212 -35.645248 -147.48784 -35.79044 -155.78162 -1.3915802 -66.013771
-35.091488 -149.50531 -23.597567 172.06963 -1.428691 -65.94223 -31.340086 162.38397
400546875 -39.16758 44.575527 -1.3371626 -74.324425 -23.567057 -140.34064 -34.55595 -155.80191
-1.3232111 -74.298721 -36.874027 69.593689 -35.345913 -157.22426 -23.460611 165.19669
-23.617899 -140.5363 -35.250179 -157.89836 -36.230949 -153.99394 -1.3957787 -74.57695
-35.186653 -161.71046 -23.26675 164.20125 -1.4148108 -74.328835 -33.97541 160.49341
408357812.5 -39.931648 18.027435 -1.34519 -82.754135 -23.431856 -149.1368 -34.575581 -171.10147
-1.3011496 -82.813377 -38.240002 57.939732 -35.403412 -162.57765 -22.9111 157.18669
-23.223837 -149.89066 -34.723721 -165.55788 -36.193035 177.35808 -1.3955013 -82.835045
-34.844185 -167.0479 -22.989252 157.88811 -1.469807 -82.606331 -33.638382 151.15665
416168750 -41.769539 -19.509579 -1.3517869 -91.273209 -22.779572 -159.71196 -34.184341 -172.67372
-1.3432022 -91.003601 -39.871857 74.669884 -35.72868 -173.39577 -22.717148 152.08722
-22.885338 -158.94402 -35.254223 -171.68309 -38.526318 -179.82532 -1.4279525 -91.284584
-35.045883 -174.44359 -22.556467 150.32362 -1.4360185 -91.23632 -35.284386 149.16122
423979687.5 -45.69606 -34.742073 -1.4002131 -99.43882 -22.561354 -169.02962 -35.063168 174.84175
-1.3738055 -99.251556 -38.31004 37.526192 -34.936882 175.91492 -22.314524 142.41269
-22.471066 -168.41742 -34.942307 -178.36604 -36.436028 153.85999 -1.472113 -99.331238
-34.553223 177.25414 -22.332813 143.85796 -1.45539 -99.264198 -33.936378 136.88344
