!Agilent Technologies,N5245A,MY51251349,A.09.33.09
!Agilent N5245A: A.09.33.09
!Date: Tuesday, September 29, 2020 13:12:08
!Correction: S11(Full 4 Port(1,2,3,4)) 
!S12(Full 4 Port(1,2,3,4)) 
!S13(Full 4 Port(1,2,3,4)) 
!S14(Full 4 Port(1,2,3,4)) 
!S21(Full 4 Port(1,2,3,4)) 
!S22(Full 4 Port(1,2,3,4)) 
!S23(Full 4 Port(1,2,3,4)) 
!S24(Full 4 Port(1,2,3,4)) 
!S31(Full 4 Port(1,2,3,4)) 
!S32(Full 4 Port(1,2,3,4)) 
!S33(Full 4 Port(1,2,3,4)) 
!S34(Full 4 Port(1,2,3,4)) 
!S41(Full 4 Port(1,2,3,4)) 
!S42(Full 4 Port(1,2,3,4)) 
!S43(Full 4 Port(1,2,3,4)) 
!S44(Full 4 Port(1,2,3,4)) 
!S4P File: Measurements: <S11,S12,S13,S14>,
!<S21,S22,S23,S24>,
!<S31,S32,S33,S34>,
!<S41,S42,S43,S44>:
# Hz S  dB   R 50
10000000 -19.292465 61.784477 -0.19038238 -16.532421 -37.96954 101.35334 -41.55991 -161.34102
-0.2877129 -16.763655 -19.407747 72.222672 -44.334099 -131.89589 -38.290825 77.975288
-34.844097 75.927765 -39.352276 133.0273 -19.860056 53.760254 -0.19248785 -17.437201
-47.56488 132.93188 -37.45713 80.790115 -0.43069977 -17.087305 -19.816357 57.217415
17810937.5 -25.741657 31.103279 -0.34814411 -22.880268 -32.063957 61.737289 -51.193439 73.240929
-0.26973662 -22.907078 -23.929338 33.609337 -58.332497 116.31356 -32.20509 62.923172
-32.184025 55.473736 -53.081184 173.89052 -22.739851 33.426918 -0.34274498 -24.276182
-47.019588 137.8974 -32.50523 65.849197 -0.39607698 -23.801809 -22.818821 32.560787
25621875 -24.366972 22.445131 -0.31457871 -31.864885 -28.45471 56.808468 -46.735981 95.120644
-0.36787301 -32.233963 -24.088717 10.189864 -50.054852 89.209785 -29.506182 59.26511
-29.586557 60.106998 -44.501274 90.352684 -24.033747 17.990227 -0.37488672 -32.342205
-45.792614 162.32855 -28.75872 57.566189 -0.39163423 -32.385193 -24.165415 15.157802
33432812.5 -25.100302 5.3447762 -0.36104596 -39.574921 -27.004473 47.30497 -50.117165 70.420914
-0.4260613 -39.950554 -28.19438 0.87206119 -48.359009 74.615234 -26.563833 49.283077
-26.93293 46.679657 -50.496071 123.52364 -24.166588 2.1955595 -0.44924361 -40.603004
-47.917679 137.82495 -27.264353 52.57634 -0.41568583 -40.632301 -25.674204 0.9421733
41243750 -24.091949 -4.3800416 -0.37550044 -49.020096 -25.385889 38.152489 -45.814346 85.071503
-0.40069625 -48.790867 -27.143476 -7.6630268 -56.045406 -114.3156 -25.710913 44.099548
-25.294771 37.254539 -64.187286 167.81886 -24.640409 -6.0447712 -0.43499678 -49.364384
-63.06514 111.37581 -25.068361 43.033852 -0.46888804 -49.322704 -25.595331 -11.999574
49054687.5 -25.276691 -24.585218 -0.41799772 -57.203251 -24.269131 27.617126 -54.554409 57.582054
-0.4347387 -57.419483 -28.714577 -12.53254 -56.113205 82.666183 -24.677065 35.904694
-24.323261 28.676785 -63.626389 21.04652 -26.286453 -18.941833 -0.46890393 -57.996597
-51.934231 97.248466 -24.296307 36.048393 -0.51622605 -57.825127 -26.525885 -21.097475
56865625 -24.509123 -42.637939 -0.47036526 -66.256218 -23.441137 20.38583 -50.990337 123.55927
-0.48787668 -66.021873 -28.695759 -36.706406 -54.849644 27.38842 -22.966955 30.435713
-23.296335 17.693218 -49.591824 33.580872 -25.814955 -29.38903 -0.4925307 -66.164787
-52.653519 53.049278 -22.823299 26.04332 -0.50998831 -66.881645 -27.494478 -35.335552
64676562.5 -25.846807 -61.60498 -0.56819952 -74.943695 -22.464725 10.576132 -50.99448 -0.62660646
-0.50898588 -75.030113 -29.199783 -54.731045 -49.610317 58.869606 -22.880623 20.647482
-22.567671 8.2099333 -48.7127 26.329433 -26.394119 -42.910454 -0.52841389 -75.476723
-46.772709 0.92210138 -22.419624 19.374615 -0.54548025 -75.162407 -30.805082 -49.443783
72487500 -27.644199 -60.148285 -0.57251889 -83.379204 -22.134295 0.028553287 -49.300152 -28.247707
-0.52371097 -83.554726 -31.582485 -50.407974 -50.559677 -31.446966 -21.65399 12.276007
-22.034145 1.6230841 -53.253727 -47.401459 -26.24526 -51.343822 -0.55118364 -84.193718
-52.337036 0.7999295 -21.856997 13.266731 -0.56199169 -84.293205 -29.772028 -65.438828
80298437.5 -26.599533 -62.734482 -0.53129476 -92.304802 -21.527657 -8.1797352 -51.313824 8.1495752
-0.51749951 -92.435555 -31.398434 -67.70623 -49.293056 -35.091473 -21.377213 5.1653924
-21.261015 -9.8463192 -42.812546 -43.689819 -27.585999 -71.554771 -0.52519828 -92.971458
-49.908836 -46.71682 -21.287083 2.8426113 -0.6403538 -92.8265 -29.894142 -71.923981
88109375 -26.384741 -78.902885 -0.59278339 -101.02245 -21.331211 -17.748686 -54.164173 -39.807735
-0.60129178 -100.98731 -34.250145 -92.860306 -51.432327 -25.578617 -20.776831 -2.8453887
-21.105913 -18.090597 -50.732056 -109.23817 -28.757103 -74.295044 -0.61545777 -101.93954
-49.653793 -58.112324 -21.042967 -3.0274057 -0.61090595 -101.48934 -32.740929 -86.139984
95920312.5 -27.494717 -87.643394 -0.59068036 -110.02472 -21.169296 -26.974047 -48.337574 -72.043106
-0.56890929 -109.68238 -36.446087 -76.726868 -48.342495 -108.40865 -20.793341 -11.21144
-20.978676 -28.234426 -50.856255 -28.376888 -29.241514 -95.457161 -0.60642999 -110.48566
-48.904011 -60.954372 -20.76087 -11.1541 -0.65055496 -110.45985 -32.892788 -100.68259
103731250 -27.489378 -100.85004 -0.62534541 -118.61787 -20.803516 -36.433342 -49.725533 -99.79818
-0.58297294 -118.49611 -42.997375 -122.5743 -48.6632 -113.60114 -20.607397 -19.943047
-20.809429 -36.202366 -50.720905 -124.32525 -30.432457 -100.57398 -0.65610415 -119.25467
-47.483437 -81.345535 -20.622555 -19.794994 -0.62942332 -119.2877 -34.217789 -133.4041
111542187.5 -28.22109 -116.60215 -0.67030537 -127.54 -20.798813 -44.960514 -48.541473 -120.82046
-0.61846167 -127.25984 -57.325798 -178.89909 -47.833336 -141.65305 -20.398516 -27.456604
-20.671638 -46.296436 -55.724205 -139.24998 -30.795397 -107.62801 -0.62726682 -127.89002
-46.779713 -85.1866 -20.606731 -28.084381 -0.63660002 -127.72993 -42.062309 -133.91617
119353125 -29.430595 -137.93541 -0.64525896 -136.2007 -20.692848 -54.934444 -48.334309 -133.23048
-0.70620704 -135.89847 -42.511936 174.40926 -55.172543 -112.2094 -20.742601 -35.383186
-20.793413 -54.803986 -44.189213 -132.07262 -31.241554 -121.30589 -0.66028267 -136.76811
-44.567135 -115.3786 -20.700758 -34.99794 -0.68666232 -136.62758 -42.571632 175.7894
127164062.5 -30.748598 -132.7184 -0.65297765 -144.8503 -21.047821 -64.510048 -48.400978 176.36121
-0.65803593 -144.69153 -41.645611 98.276894 -49.56612 -143.49791 -20.704567 -42.062241
-20.807089 -63.890491 -49.647865 -174.27534 -34.994305 -149.52638 -0.74115276 -145.42632
-45.802944 -152.65071 -20.770929 -41.985348 -0.73167646 -145.36122 -39.37656 129.33119
134975000 -31.900204 -141.20592 -0.73375672 -153.29088 -21.328096 -72.829102 -46.075844 -169.14651
-0.6983344 -153.39496 -39.134445 71.624306 -47.024216 -162.39938 -20.907263 -50.1502
-21.107229 -73.472252 -45.175156 -171.10709 -35.126595 -148.4938 -0.75309449 -154.13179
-46.218044 -159.59555 -20.973911 -51.284721 -0.74390101 -154.00484 -39.205082 99.658775
142785937.5 -34.019825 -167.03081 -0.7480486 -162.23801 -21.559557 -83.067253 -42.293324 176.46947
-0.73645014 -162.02719 -34.083149 66.837433 -43.492348 166.82401 -21.268229 -58.079266
-21.541233 -82.54464 -45.350182 145.61336 -37.667751 -160.36255 -0.73415643 -162.75238
-46.054272 167.24861 -21.36297 -58.39225 -0.74895209 -162.69814 -38.077213 70.438194
150596875 -33.257946 178.31676 -0.78335387 -170.99942 -21.953262 -91.39402 -47.298058 174.30055
-0.73546124 -170.75716 -32.223156 46.39954 -44.020489 157.72798 -21.575481 -66.00071
-22.138445 -90.42971 -41.917843 143.21719 -37.114819 145.6781 -0.74660373 -171.63275
-48.438946 164.00603 -21.697498 -65.113922 -0.77153701 -171.69054 -35.090424 72.981171
158407812.5 -34.53875 136.58717 -0.75295633 -179.62387 -22.572536 -101.18181 -42.27866 141.72493
-0.74121988 -179.29636 -30.68928 41.369762 -43.334785 152.82191 -22.191429 -74.400833
-22.597124 -100.51152 -43.809685 142.21071 -38.492165 128.9588 -0.76196975 179.66512
-42.970886 157.53929 -22.271025 -73.283516 -0.76873177 179.44826 -33.021671 55.197834
166218750 -36.187706 116.52338 -0.78215855 171.69312 -23.127544 -110.22953 -42.120205 144.77592
-0.74994195 171.87042 -31.119753 26.952431 -42.860611 144.85889 -22.971319 -80.796028
-23.133169 -110.10434 -42.633335 141.13512 -35.521523 84.784012 -0.80098289 170.9198
-44.101002 141.67163 -22.790733 -80.436279 -0.81074548 170.83075 -32.190018 44.706932
174029687.5 -37.003239 81.891495 -0.80076122 162.99832 -23.866726 -117.45848 -43.996899 126.21864
-0.79250032 163.50323 -29.188633 11.874009 -42.610462 119.92874 -23.532284 -86.87188
-23.751579 -118.01582 -42.329769 116.76598 -35.97398 61.911907 -0.80239028 162.27025
-41.948463 123.51093 -23.431564 -88.101479 -0.84598184 162.09204 -31.476658 22.8999
181840625 -36.148518 52.39344 -0.81463403 154.26042 -24.864901 -126.51897 -42.425392 108.70591
-0.80698687 154.41656 -29.758629 6.862277 -42.089848 102.75546 -24.562653 -95.389992
-24.685289 -126.77927 -41.392799 102.60517 -33.134243 28.242222 -0.8338728 153.57339
-43.75135 116.20068 -24.119623 -94.182289 -0.86255825 153.49022 -31.000263 15.052416
189651562.5 -37.265972 39.704708 -0.83782148 145.56027 -25.906633 -134.96146 -41.484608 88.201645
-0.77909863 145.84731 -29.139919 -2.0862401 -43.536411 86.46933 -25.409578 -102.84587
-25.928186 -135.21323 -42.995995 91.272926 -33.339119 18.28076 -0.8231734 144.91515
-42.890034 94.267906 -25.509449 -102.95805 -0.86262304 144.86018 -29.826347 -3.1164019
197462500 -36.48011 46.540707 -0.84518552 136.94254 -27.052177 -144.04549 -42.409847 84.18824
-0.84612006 136.98544 -27.999073 -16.545134 -42.987335 80.949516 -26.688795 -108.34225
-27.100012 -145.02309 -43.51593 70.375931 -31.772924 9.7082195 -0.85174137 136.00414
-42.978046 86.476189 -26.646873 -109.0809 -0.89522696 136.03687 -29.560202 -2.5627573
205273437.5 -32.99538 28.845757 -0.85245335 128.05838 -28.803978 -151.13199 -42.195587 57.043983
-0.84616071 128.36763 -27.515425 -20.385405 -43.110558 66.125435 -28.064432 -116.95781
-28.730928 -151.09366 -44.045444 58.457283 -31.06119 2.7282825 -0.88022459 127.14172
-41.087925 75.689423 -28.197762 -117.00808 -0.86557686 127.14154 -29.806637 -17.519981
213084375 -30.860872 9.8479319 -0.86365151 119.36002 -30.444712 -158.20993 -42.288216 51.515709
-0.85356808 119.35394 -28.188723 -32.637119 -41.039238 52.669231 -30.206728 -125.0117
-30.763058 -157.99069 -41.93816 59.933544 -30.686789 -24.255875 -0.87478775 118.50481
-42.489613 59.972702 -30.204592 -122.23731 -0.90749562 118.3766 -29.041889 -24.323872
220895312.5 -31.85718 -4.7972579 -0.88512617 110.73199 -32.679348 -164.79286 -43.520481 44.645123
-0.85575271 110.98185 -27.234074 -37.855446 -40.830482 51.0546 -32.527023 -129.47351
-33.124504 -163.86955 -42.105099 53.42149 -29.41597 -21.52368 -0.90544522 109.80531
-43.460201 43.828835 -32.378899 -127.70802 -0.89325488 109.66814 -29.417017 -28.41189
228706250 -30.584591 -24.929613 -0.91310376 102.07793 -36.037079 -165.04768 -43.1492 36.712471
-0.88883698 101.87829 -27.83666 -48.533318 -43.302219 34.956692 -35.973999 -126.89
-36.421921 -160.74797 -43.524582 37.403709 -28.642385 -35.649666 -0.89784557 101.03067
-40.682671 27.743555 -35.514858 -129.41005 -0.92755675 100.87538 -30.417137 -39.088421
236517187.5 -29.014194 -40.140602 -0.92747867 93.019699 -38.878326 -146.46873 -43.842621 22.14719
-0.90004694 93.398285 -28.746054 -60.024361 -43.11227 16.30802 -39.485146 -129.41869
-39.467285 -157.07881 -42.584755 19.510534 -28.060381 -49.825405 -0.94896126 92.224541
-43.548145 21.816849 -40.065834 -127.37345 -0.95740825 92.25576 -30.723967 -47.232437
244328125 -30.940842 -52.804886 -0.96251607 84.550255 -43.965946 -128.75581 -41.553947 19.48171
-0.94410717 84.46949 -29.073792 -71.643967 -42.718006 12.967192 -46.635872 -103.34605
-44.201511 -113.31213 -41.846333 13.715612 -28.075251 -61.976803 -0.93643832 83.398911
-42.470448 21.284361 -47.310097 -101.4007 -0.96589255 83.544205 -31.423168 -58.471333
252139062.5 -30.112776 -66.547905 -0.93961346 75.860275 -40.375977 -84.108223 -44.368328 9.0939283
-0.97405899 75.686966 -29.844757 -72.926941 -42.53384 -1.6210052 -44.53334 -43.059742
-40.850094 -83.222321 -42.168179 11.270024 -27.956955 -68.751976 -0.92579919 74.692062
-41.054787 -0.83857536 -43.32555 -24.286068 -0.97828966 74.735779 -31.996408 -54.870106
259950000 -30.857006 -58.02586 -1.0145209 67.070808 -37.430298 -75.69854 -40.843567 -10.314035
-0.95132947 67.063225 -30.677691 -89.543411 -42.452412 4.9153681 -38.043076 -25.532196
-36.274479 -79.100365 -43.426991 -11.470539 -27.412409 -75.05983 -0.99043286 66.14109
-41.805153 -0.71685451 -37.895023 -16.355431 -0.97257328 65.823921 -32.540226 -73.531601
267760937.5 -27.740461 -72.266998 -0.97179461 58.385113 -34.235214 -75.612541 -42.12191 -6.3614726
-0.99867105 58.501583 -31.192081 -87.797897 -42.73996 -8.9157133 -35.083668 -17.252321
-33.359303 -72.758362 -41.85675 -14.124079 -28.136496 -85.435463 -1.0185984 57.340313
-42.806602 -12.326343 -34.956989 -17.695915 -1.0393462 57.326637 -34.18029 -63.539303
275571875 -29.485123 -83.996902 -1.0320204 49.516193 -31.115477 -80.040642 -41.656563 -23.472178
-0.98229736 50.108753 -30.581133 -90.971794 -41.406395 -26.764067 -32.01685 -19.973248
-32.0914 -79.975319 -42.522758 -25.700994 -27.185667 -96.134201 -1.0332603 48.378155
-42.172661 -25.163176 -31.987427 -24.406387 -1.0259718 48.437099 -34.791035 -82.652824
283382812.5 -29.351196 -99.942604 -1.0352061 40.991478 -30.11323 -86.682205 -43.533054 -41.578426
-1.021194 41.166264 -34.442348 -110.4883 -42.744583 -28.286432 -30.795923 -28.167591
-29.918266 -87.892288 -41.539761 -30.405708 -27.973026 -107.52203 -1.0260365 39.721474
-42.381096 -32.581177 -30.158558 -28.13291 -1.0689738 39.651913 -34.703255 -74.185776
291193750 -29.307549 -115.38988 -1.0476805 32.176529 -28.891998 -95.268684 -43.023064 -32.466835
-1.0299355 32.561691 -35.940933 -94.016434 -41.158802 -33.755474 -28.578815 -34.123333
-28.833708 -94.545876 -41.784447 -38.180828 -27.734335 -123.7634 -1.0610514 31.040222
-42.173393 -37.077007 -28.974075 -35.393158 -1.0881826 30.946003 -39.605541 -71.241173
299004687.5 -29.782673 -115.65107 -1.0556194 23.562422 -27.797888 -104.25107 -40.880501 -46.411716
-1.0608577 23.643034 -37.907887 -110.09468 -43.702393 -34.41518 -27.753269 -41.543472
-28.073231 -103.68855 -42.428974 -35.851589 -28.514893 -122.20192 -1.0770175 22.500919
-41.074409 -55.446529 -27.885965 -39.610806 -1.0735896 22.21389 -39.101608 -74.755913
306815625 -31.264198 -124.48132 -1.0759586 14.891716 -27.055376 -111.19495 -42.63475 -50.177372
-1.0695871 14.995979 -41.791321 -83.020294 -38.896061 -50.896744 -27.073492 -49.346519
-27.177933 -111.10118 -39.608765 -51.742474 -29.012093 -132.58862 -1.1044075 13.613103
-40.997036 -61.099289 -26.809584 -48.943581 -1.12922 13.525398 -39.818951 -49.728092
314626562.5 -31.349792 -134.91483 -1.0830467 6.0583892 -26.250999 -121.29163 -40.244862 -57.806561
-1.0790282 6.3397546 -40.270485 -89.227104 -41.423061 -64.569122 -26.480108 -57.425842
-26.341896 -120.40357 -40.817059 -64.540535 -29.308523 -145.56175 -1.1268241 4.8944049
-41.336224 -65.927017 -26.205061 -56.584751 -1.1596614 4.9189138 -38.654545 -35.73822
322437500 -29.69416 -143.19742 -1.1273837 -2.5276465 -25.838001 -128.49092 -39.422504 -79.648804
-1.1360536 -2.4590161 -39.08448 -86.956017 -41.338711 -77.35981 -25.5861 -66.193115
-25.636347 -127.77008 -41.333759 -71.23484 -30.525223 -150.6368 -1.1455009 -4.013154
-41.386395 -82.183144 -25.740894 -65.081528 -1.1497836 -3.7709188 -37.884235 -51.650345
330248437.5 -30.712955 -162.55005 -1.1782153 -11.190055 -25.398457 -136.61882 -41.120472 -90.52684
-1.1203592 -10.897002 -38.265034 -53.311241 -39.704128 -75.792725 -25.221497 -73.211571
-25.425941 -135.82722 -40.403118 -84.577995 -30.753206 -160.46259 -1.1828662 -12.460055
-40.915234 -82.263763 -25.02334 -72.894211 -1.1914655 -12.720881 -36.643589 -47.472626
338059375 -32.157845 -169.59178 -1.1786277 -19.736433 -24.974937 -143.70325 -40.691528 -92.799889
-1.1614625 -19.594645 -38.67551 -43.885212 -40.443909 -93.285851 -24.715506 -81.202995
-25.022211 -143.83151 -41.78651 -99.340927 -30.348988 -161.91647 -1.1674144 -21.298702
-40.220509 -96.765465 -24.856512 -81.310699 -1.2321038 -21.281353 -36.50005 -38.354023
345870312.5 -31.607306 177.0089 -1.1995944 -28.64624 -24.753872 -154.80392 -40.385845 -95.867264
-1.1761341 -28.138741 -34.37801 -50.265854 -40.303993 -99.730988 -24.454529 -88.373688
-24.455271 -152.29968 -40.861843 -105.86616 -32.506504 176.62535 -1.1982715 -29.808851
-40.391308 -102.27956 -24.495081 -89.379959 -1.2399459 -30.125107 -34.665852 -45.111168
353681250 -32.306973 158.63596 -1.1779243 -37.437355 -24.339542 -161.71935 -40.143196 -120.6838
-1.1500586 -36.989025 -35.29744 -53.659702 -40.934822 -106.01775 -24.081081 -97.943558
-24.202621 -161.39799 -39.717438 -106.11988 -32.66378 176.02922 -1.2487906 -38.716656
-41.041977 -108.50954 -24.067238 -96.407928 -1.2055374 -38.661835 -36.353043 -50.462994
361492187.5 -32.968853 169.59862 -1.2180383 -45.824112 -23.871572 -170.14871 -41.437901 -122.16891
-1.2082032 -45.637028 -33.46563 -63.440384 -38.439545 -125.3396 -23.877153 -106.43658
-23.855944 -171.02231 -39.692207 -115.05322 -33.532318 171.75624 -1.2159208 -47.424809
-38.617924 -127.76377 -23.929029 -106.66588 -1.2714401 -47.467472 -34.91473 -59.200558
369303125 -31.945402 158.77434 -1.2449251 -54.680229 -23.602301 -178.39934 -39.78828 -140.08089
-1.2361436 -54.215889 -31.790924 -68.130989 -38.995533 -130.74953 -23.565331 -115.73693
-23.710445 -179.00906 -40.080784 -131.19954 -35.814793 166.0134 -1.2505828 -56.156212
-40.470425 -138.58723 -23.717775 -115.22416 -1.2926701 -56.119587 -35.260174 -74.442734
377114062.5 -32.479355 140.38116 -1.272261 -63.357574 -23.494883 172.2209 -39.38118 -147.06985
-1.228636 -63.224564 -32.039787 -78.364471 -40.032692 -138.60252 -23.578701 -124.40697
-23.597082 172.6881 -38.333759 -137.57777 -34.408844 150.46724 -1.2682852 -64.780197
-41.903736 -142.72527 -23.481583 -124.03655 -1.2922002 -64.700607 -35.123741 -87.84832
384925000 -31.716383 127.61977 -1.267856 -71.866539 -23.283281 164.87242 -39.874516 -150.93816
-1.2601901 -71.752647 -32.726055 -89.384193 -39.308186 -147.48848 -23.22843 -132.78131
-23.233343 165.23132 -38.221096 -149.4664 -36.594265 144.04004 -1.2895225 -73.664131
-39.808636 -153.46706 -23.277222 -132.93883 -1.3283973 -73.630531 -35.122013 -87.489738
392735937.5 -34.104279 111.68167 -1.3162508 -80.71653 -23.122517 156.19498 -39.385185 -160.05153
-1.2626607 -80.55188 -30.995764 -92.92189 -38.936321 -160.09264 -23.165014 -142.35588
-23.26092 156.75027 -37.541218 -153.89781 -36.965256 142.4575 -1.3244491 -82.158356
-40.872341 -163.71489 -23.271421 -142.53024 -1.3480896 -82.194023 -36.307922 -98.791939
400546875 -32.756531 108.52763 -1.2843646 -89.380455 -23.234674 148.47397 -40.684822 -173.00031
-1.3344897 -89.003548 -31.39534 -105.09029 -39.183689 -166.4614 -23.206259 -151.03752
-22.974247 149.55103 -39.385818 -167.20734 -40.47472 166.81496 -1.3351333 -90.862656
-40.574421 -161.53362 -23.005814 -151.77681 -1.3561318 -90.804581 -34.572639 -108.00881
408357812.5 -35.225464 96.025749 -1.344795 -97.836044 -22.943672 142.12985 -40.67128 -171.18196
-1.2497326 -98.0355 -30.923872 -111.85139 -38.826233 -175.3194 -23.146305 -160.44174
-23.006052 142.38228 -38.875565 -172.73531 -38.460041 130.94972 -1.3431255 -99.749611
-38.924194 -176.65004 -22.90444 -160.70215 -1.3734165 -99.722076 -35.726418 -126.26901
416168750 -37.06356 92.845718 -1.3678705 -106.66927 -22.881561 133.30841 -38.591934 168.79703
-1.3282286 -106.16811 -31.249607 -130.64417 -38.263264 174.29434 -22.797213 -170.0993
-22.766277 132.96312 -37.980282 176.07622 -41.938049 144.83607 -1.3462355 -108.35726
-38.681473 175.14174 -23.004045 -170.61412 -1.3687534 -108.37389 -34.602093 -130.47794
423979687.5 -35.143856 84.782417 -1.3628597 -115.40662 -22.767561 125.40587 -38.925079 170.4716
-1.3929538 -114.94244 -30.945568 -132.27473 -37.329506 164.36801 -22.874313 -179.32098
-22.829819 125.32484 -39.774521 157.29173 -39.767761 112.41775 -1.3926644 -116.87447
-39.25716 156.6776 -22.957327 -179.92351 -1.3617363 -116.95538 -36.757614 -164.57227
