!Agilent Technologies,N5245A,MY51251349,A.09.33.09
!Agilent N5245A: A.09.33.09
!Date: Tuesday, September 29, 2020 17:17:00
!Correction: S11(Full 4 Port(1,2,3,4)) 
!S12(Full 4 Port(1,2,3,4)) 
!S13(Full 4 Port(1,2,3,4)) 
!S14(Full 4 Port(1,2,3,4)) 
!S21(Full 4 Port(1,2,3,4)) 
!S22(Full 4 Port(1,2,3,4)) 
!S23(Full 4 Port(1,2,3,4)) 
!S24(Full 4 Port(1,2,3,4)) 
!S31(Full 4 Port(1,2,3,4)) 
!S32(Full 4 Port(1,2,3,4)) 
!S33(Full 4 Port(1,2,3,4)) 
!S34(Full 4 Port(1,2,3,4)) 
!S41(Full 4 Port(1,2,3,4)) 
!S42(Full 4 Port(1,2,3,4)) 
!S43(Full 4 Port(1,2,3,4)) 
!S44(Full 4 Port(1,2,3,4)) 
!S4P File: Measurements: <S11,S12,S13,S14>,
!<S21,S22,S23,S24>,
!<S31,S32,S33,S34>,
!<S41,S42,S43,S44>:
# Hz S  dB   R 50
10000000 -19.447048 53.903 -0.089066178 -18.052204 -33.439316 57.701206 -49.061295 119.25754
-0.25935364 -18.215525 -19.583515 71.499619 -52.207619 -84.384529 -38.277542 40.235023
-37.666328 40.890488 -37.742268 169.23572 -20.481104 52.851517 -0.4292658 -19.032145
-51.685333 65.262329 -34.783215 63.714287 -0.44830367 -17.589653 -19.615713 60.646782
17810937.5 -25.998468 23.593071 -0.329337 -24.965683 -30.952585 67.652176 -45.669907 141.56859
-0.21477459 -24.972181 -23.693136 29.957769 -47.985195 102.59348 -30.342083 64.498787
-30.575687 63.96117 -54.000725 150.12543 -22.795797 30.847778 -0.43519086 -25.999537
-47.930332 -144.59785 -31.494982 62.978035 -0.47502989 -25.349628 -22.720722 31.915302
25621875 -25.257231 15.71616 -0.34070578 -34.325073 -28.479908 57.353508 -44.374691 145.99356
-0.33273456 -34.723202 -23.543337 10.416283 -45.490238 103.62078 -27.789881 56.231987
-28.307322 61.883556 -55.95882 128.17082 -24.609999 12.908288 -0.51710618 -35.585182
-49.668915 -177.93011 -28.48197 49.246544 -0.4709101 -35.117104 -23.73185 13.796639
33432812.5 -25.491945 -8.2742805 -0.29738319 -42.986534 -26.162842 48.418079 -52.706642 108.59214
-0.38020796 -43.024334 -27.003365 -3.1852179 -54.637146 -49.570679 -25.893604 43.439301
-25.590038 45.699997 -52.271473 102.65524 -24.375683 -3.7125523 -0.50288051 -44.100727
-52.606949 104.96485 -26.076229 42.670509 -0.5000326 -43.928749 -25.051624 -3.0781837
41243750 -24.446562 -17.771124 -0.35846773 -52.840267 -24.720062 38.788315 -47.388626 79.320053
-0.40231431 -53.140556 -25.99864 -11.085182 -56.438915 11.960932 -23.961985 33.421196
-23.579769 39.637363 -54.742462 -29.889824 -26.056009 -17.028734 -0.49999663 -53.732281
-52.743534 64.593201 -24.130058 32.368511 -0.54628557 -53.612347 -24.500729 -13.210843
49054687.5 -26.555477 -33.695354 -0.40189633 -62.549549 -23.162476 30.797354 -49.961338 88.578018
-0.42830408 -62.409359 -27.254908 -17.782238 -48.904774 98.321732 -23.257906 22.140499
-23.122074 29.995644 -54.525608 178.20151 -27.562695 -28.926968 -0.51941907 -63.187939
-52.142036 129.18951 -22.911623 23.703665 -0.597664 -62.811897 -25.09589 -28.596121
56865625 -26.327003 -54.431553 -0.49390075 -71.745529 -22.303061 21.419491 -50.307049 32.642365
-0.46895346 -71.68602 -26.77239 -33.396435 -55.075047 131.01079 -21.898972 12.091752
-21.826132 21.566368 -55.394096 169.34705 -28.159607 -40.752907 -0.55792707 -72.487297
-54.479324 51.883965 -22.235357 14.686681 -0.56451601 -72.57666 -26.144632 -40.564255
64676562.5 -26.51795 -84.342766 -0.51599771 -81.563446 -21.300989 10.218972 -53.745605 -35.568447
-0.50161618 -81.603027 -27.21047 -52.966061 -54.517696 -123.05785 -21.498993 2.7543857
-21.312717 12.674618 -53.141346 -57.777828 -29.50415 -59.977757 -0.59622449 -82.063057
-53.740417 -75.246468 -21.538847 4.0375371 -0.61534888 -81.897865 -28.05134 -50.77832
72487500 -30.387184 -81.610558 -0.58334488 -90.879395 -20.868486 4.6706109 -48.796803 -42.985168
-0.51597834 -91.111275 -29.512926 -51.390755 -57.711639 126.0646 -21.026199 -6.5191822
-20.624575 4.3488059 -63.082226 -30.082438 -29.556107 -66.87339 -0.62608469 -91.617821
-51.59573 -63.869122 -20.860729 -6.7885389 -0.62937474 -91.473183 -27.505638 -67.493858
80298437.5 -29.678442 -85.061447 -0.54826814 -100.65987 -20.341576 -4.1988559 -52.932804 -152.14076
-0.55628395 -100.66219 -28.689146 -73.395264 -55.274776 -80.386307 -20.540178 -15.078307
-20.189308 -5.8204408 -46.713814 -116.685 -32.32008 -88.990189 -0.6487326 -101.24503
-51.406284 -95.373726 -20.533863 -17.162138 -0.69073439 -100.80263 -26.595762 -79.218704
88109375 -29.66741 -111.4314 -0.58080602 -110.16898 -20.448521 -13.411042 -54.333084 -113.16744
-0.59203082 -110.01266 -29.888969 -93.300522 -49.207851 176.30179 -20.265905 -25.830944
-20.080118 -13.504001 -49.697361 -109.57742 -34.517338 -103.57413 -0.67188638 -110.83743
-50.720028 -133.7343 -20.274479 -25.62657 -0.67888576 -110.51098 -28.799862 -86.843941
95920312.5 -31.254044 -121.94666 -0.62820029 -119.49265 -20.067314 -23.743326 -50.295109 -128.30666
-0.64423931 -119.4849 -32.229424 -89.529259 -48.714722 -175.7406 -20.09915 -34.813232
-20.075314 -22.797426 -49.379543 -156.79204 -37.139442 -130.90012 -0.7005406 -120.10643
-46.454277 -149.50906 -20.162069 -34.491531 -0.73418289 -120.20924 -28.442225 -105.69536
103731250 -31.837416 -143.01973 -0.65849906 -129.04012 -20.192335 -32.490147 -44.88829 -156.70804
-0.61485475 -129.02792 -34.054775 -118.90314 -45.269169 -171.81207 -20.313005 -44.215786
-20.033125 -31.378443 -46.08643 165.30391 -38.019436 -163.01633 -0.72240567 -129.80136
-44.057354 -154.01201 -20.356867 -44.610855 -0.74294949 -129.72197 -30.02071 -125.87408
111542187.5 -32.557747 -176.75813 -0.74178648 -138.55446 -20.105316 -40.696972 -41.268215 172.77806
-0.63333172 -138.84676 -37.906898 -111.26628 -43.438137 168.5565 -20.134552 -54.842888
-20.245123 -40.672367 -42.16243 178.05223 -41.632214 172.85811 -0.717843 -139.24966
-40.761379 -170.30566 -20.291763 -54.525227 -0.74989301 -138.93901 -31.872194 -130.64749
119353125 -31.784502 153.32991 -0.71597904 -148.27893 -20.342344 -49.178143 -41.191475 160.60135
-0.72002321 -148.18929 -37.125206 -158.79112 -43.138546 173.42905 -20.688589 -64.051788
-20.346226 -49.261539 -43.057892 170.66586 -41.714973 132.99763 -0.75948423 -148.80725
-40.464798 172.4845 -20.329643 -63.748928 -0.77666801 -148.45959 -33.927025 -148.50397
127164062.5 -34.704037 148.67508 -0.69703364 -157.70033 -20.661526 -56.749008 -42.689632 157.32298
-0.67450333 -157.48726 -41.416489 173.11644 -40.63784 142.24788 -20.802742 -71.466484
-20.549101 -57.935005 -41.005753 146.77788 -35.923733 94.976311 -0.79459524 -157.93814
-41.258663 149.14471 -20.963552 -73.293526 -0.82396883 -158.02066 -34.574215 -172.04124
134975000 -35.266365 126.03164 -0.77612025 -167.03976 -21.057058 -67.713547 -41.005089 130.88866
-0.74831879 -167.07458 -43.567772 127.42802 -38.696125 128.76543 -21.331692 -80.975044
-21.075949 -65.682358 -39.670353 133.53038 -36.76812 78.822891 -0.82165051 -167.48891
-42.245377 141.60806 -21.259975 -81.962822 -0.81140977 -167.42361 -36.9613 169.21851
142785937.5 -32.444782 90.795563 -0.81907195 -176.62125 -21.847679 -74.74604 -39.920544 130.13225
-0.75941283 -176.50311 -36.550117 69.449112 -38.867538 119.27164 -21.928022 -91.499878
-21.583656 -74.861916 -40.008755 117.19428 -35.19772 61.201958 -0.8511703 -177.01311
-39.192638 130.4053 -21.753435 -89.892982 -0.8335138 -176.83611 -40.333641 144.64998
150596875 -32.714893 88.692902 -0.8183679 173.86935 -22.444738 -84.878922 -39.62775 106.78967
-0.77667391 174.06389 -34.155891 45.550625 -38.872032 105.7795 -22.572397 -98.636833
-22.515669 -83.354683 -38.429089 106.2653 -31.120857 47.955826 -0.84705609 173.5934
-39.012169 109.72153 -22.738104 -100.58755 -0.87588018 173.46494 -38.971889 107.42367
158407812.5 -30.145674 55.557907 -0.85539949 164.58578 -23.464668 -93.071129 -37.651241 101.09882
-0.8070786 164.51544 -32.293751 36.265053 -37.8703 96.916504 -23.458515 -108.95427
-23.307926 -92.199028 -37.541096 103.61079 -30.965984 38.535007 -0.88057727 164.05023
-37.127899 102.64072 -23.404947 -107.56842 -0.88979942 163.8817 -35.880554 66.852829
166218750 -29.590641 43.501862 -0.8605386 154.94395 -24.368483 -101.11414 -36.506145 85.883659
-0.82905436 154.99054 -32.430912 22.620155 -37.639091 79.890221 -24.421419 -117.21673
-24.243465 -101.51102 -36.137764 84.419403 -29.129663 25.821135 -0.91621184 154.42809
-38.293304 93.14473 -24.51523 -116.47688 -0.91836423 154.26625 -34.701092 45.485275
174029687.5 -29.849047 28.235533 -0.86347228 145.49178 -25.648762 -109.84628 -37.72134 74.276421
-0.84238917 145.62178 -29.881538 4.6428623 -36.534264 75.500008 -25.844427 -123.52549
-25.635176 -108.8043 -36.991898 67.789146 -29.540571 11.629077 -0.9029156 144.92415
-36.901814 75.388885 -25.704937 -123.29519 -0.95112664 144.87953 -34.332047 16.783663
181840625 -29.2938 14.096669 -0.89232808 135.95433 -27.552311 -118.27463 -36.594204 58.79451
-0.85134238 136.00717 -28.81991 -2.7039418 -36.343838 63.171688 -27.624859 -131.62373
-27.008232 -118.03513 -36.522469 55.748272 -28.681524 -7.0579762 -0.93838757 135.61203
-37.372292 60.653706 -27.316837 -130.18466 -0.98447579 135.414 -33.24865 3.6623018
189651562.5 -29.679735 8.2030516 -0.94112509 126.37142 -29.301428 -128.35837 -35.995697 51.813992
-0.86520445 126.51244 -28.364506 -16.236084 -36.428925 53.694534 -29.246922 -137.09892
-29.747364 -126.64825 -35.914551 48.636795 -29.260063 -12.185581 -0.9452849 126.00632
-36.553577 54.252892 -29.039927 -134.51553 -0.96445197 126.02375 -31.428947 -20.218887
197462500 -30.159229 8.5862646 -0.93750918 117.01136 -31.884787 -133.44296 -36.793533 36.607449
-0.90346134 117.08406 -27.244709 -28.261248 -36.745602 36.447384 -30.993284 -136.36472
-31.956579 -136.46742 -35.826538 38.104851 -28.705845 -22.693022 -0.9590717 116.45179
-35.912121 36.943588 -31.615379 -136.82028 -1.0085229 116.3704 -29.526373 -23.41824
205273437.5 -28.616913 -1.0472215 -0.90654421 107.43041 -36.436539 -143.40091 -35.645325 30.038523
-0.902215 107.76565 -26.130119 -35.440472 -35.832687 24.784369 -34.344208 -138.65172
-36.658943 -141.91309 -35.573139 27.010256 -29.217598 -28.804628 -0.99661231 106.8158
-35.603516 29.498444 -34.353844 -132.69791 -0.98821801 106.91965 -29.493265 -42.90625
213084375 -28.658876 -10.868539 -0.95660943 98.031761 -46.348278 -140.84135 -35.972118 16.373537
-0.93313348 97.868431 -26.03101 -47.655716 -35.806564 14.404171 -37.10099 -118.16035
-43.01865 -155.04967 -35.229313 14.068587 -30.015902 -48.512257 -1.0044482 97.32695
-35.926624 13.961444 -35.965675 -115.6652 -1.0106022 97.230499 -27.527439 -46.322132
220895312.5 -29.203348 -22.777224 -0.99380583 88.424805 -47.606621 1.7310781 -35.677399 2.945107
-0.94838965 88.690414 -24.929539 -57.422058 -35.744556 -0.35911348 -36.171543 -94.469818
-47.651352 7.0014834 -35.561768 -0.033037357 -29.464413 -44.794991 -1.0561154 87.609322
-36.042225 8.9540148 -36.84351 -93.802124 -1.0264235 87.781876 -27.242815 -57.031422
228706250 -30.094698 -39.444061 -0.99756658 78.660164 -38.611771 -0.18499073 -35.177624 -4.3768258
-0.9908095 78.950958 -24.962795 -67.497765 -36.988567 -10.229385 -34.979061 -75.184402
-37.424702 -1.4947784 -35.122524 -3.6104722 -30.459938 -56.900101 -1.0318091 78.311668
-35.571682 -1.6613016 -34.195667 -70.708946 -1.0723398 78.158913 -27.414156 -70.337029
236517187.5 -30.202585 -48.7216 -0.99924999 69.453903 -33.679783 -6.8746662 -34.847813 -12.484839
-0.99870682 69.430771 -25.446939 -78.152481 -34.682217 -18.986547 -31.865385 -66.979729
-33.684021 -5.9473801 -35.558765 -15.047962 -30.370977 -64.848206 -1.0620021 68.718414
-35.32412 -18.047104 -31.724823 -70.697052 -1.1054978 68.829414 -26.980885 -78.500687
244328125 -32.866367 -55.551163 -1.0559496 59.945518 -30.556473 -17.26012 -35.783253 -28.327217
-1.0282496 59.94413 -25.618357 -92.707489 -35.230602 -31.151878 -29.826921 -74.255173
-30.643129 -13.275376 -35.356438 -25.341238 -32.134998 -77.299553 -1.0827165 59.424477
-35.244755 -22.993284 -30.390854 -71.52845 -1.1199081 59.33223 -27.015741 -93.312302
252139062.5 -34.062443 -57.908508 -1.064355 50.422234 -28.955544 -24.446526 -35.216797 -37.05463
-1.0321667 50.502495 -24.877979 -96.232674 -34.621098 -39.110153 -28.130486 -77.769478
-28.975483 -21.64402 -36.409153 -40.373997 -33.81115 -77.310921 -1.1044965 49.729233
-34.575382 -28.19302 -28.485554 -78.730324 -1.1190932 49.75185 -26.97797 -98.311447
259950000 -31.417246 -46.871956 -1.1592873 40.806221 -27.139128 -29.52313 -35.754818 -44.725994
-1.0509903 41.02319 -25.265434 -111.52903 -34.779488 -43.384022 -27.251007 -82.456322
-27.532696 -32.132389 -35.253998 -46.173313 -32.919872 -77.649574 -1.1203004 40.504372
-35.189541 -44.923191 -27.223507 -81.818817 -1.1338367 40.29414 -26.239027 -111.67828
267760937.5 -30.763521 -76.936279 -1.1332343 31.45495 -26.182961 -40.966259 -34.661549 -52.533607
-1.0716093 31.616796 -25.158871 -115.89381 -34.26717 -54.459042 -26.073191 -89.639137
-26.290144 -40.55204 -35.045307 -50.872631 -34.824997 -71.893593 -1.1669195 30.837437
-34.884197 -53.104046 -26.008951 -89.633293 -1.1831031 30.841669 -26.823725 -115.82268
275571875 -33.845295 -67.803123 -1.1416724 22.006567 -25.27 -51.516445 -34.446251 -61.643257
-1.1051008 22.231073 -24.992172 -126.08369 -35.807236 -66.313515 -25.128769 -94.702469
-25.136614 -51.07629 -33.909405 -66.539558 -36.7015 -87.085304 -1.1841365 21.289061
-35.044506 -64.722237 -25.526447 -97.949432 -1.2077444 21.263062 -27.127529 -129.22751
283382812.5 -36.495644 -68.801292 -1.1778483 12.546183 -24.558796 -60.543892 -34.879108 -72.662575
-1.1629912 12.79497 -26.519878 -139.3425 -34.390274 -77.09964 -24.610151 -105.71759
-24.714619 -59.783173 -34.394321 -75.451294 -37.107838 -77.809044 -1.2216209 11.720235
-34.429504 -74.510277 -24.608105 -107.28416 -1.2342038 11.805016 -26.170538 -139.65398
291193750 -36.67511 -78.62812 -1.1995471 3.0475397 -23.811247 -69.159546 -34.108952 -78.249084
-1.163371 3.2192752 -26.557312 -142.37144 -34.546627 -85.71228 -24.062965 -112.34756
-24.228498 -68.980492 -34.20216 -80.159927 -43.113605 -77.309311 -1.2409587 2.3439496
-34.456844 -80.619431 -23.953329 -113.01455 -1.2614675 2.3109312 -27.271811 -149.00519
299004687.5 -34.232006 -66.407158 -1.2072519 -6.3590713 -23.558334 -78.187462 -34.497448 -90.206436
-1.2050987 -6.3903909 -27.583317 -154.49338 -34.949112 -91.320374 -23.425989 -122.00687
-23.65329 -78.746712 -33.765316 -93.169243 -37.060032 -60.53941 -1.2469871 -6.9820337
-34.015068 -92.916061 -23.60948 -121.5092 -1.2450136 -7.1576519 -27.38279 -161.57297
306815625 -34.788212 -62.886318 -1.2470486 -15.889677 -23.064913 -88.321815 -34.599606 -99.082359
-1.1934018 -15.958928 -28.707737 -162.10602 -33.724049 -96.368431 -23.224264 -128.92082
-23.050777 -87.475983 -34.112549 -100.96299 -36.45797 -61.012421 -1.2951398 -16.56424
-33.385296 -100.83755 -23.1178 -130.07043 -1.3134602 -16.563725 -28.039703 -167.22722
314626562.5 -34.552811 -71.568642 -1.2435406 -25.314096 -22.673746 -98.157738 -33.921341 -111.33408
-1.2527952 -25.28775 -28.108442 -171.07497 -33.516396 -107.62118 -23.005568 -138.14406
-22.929825 -98.315964 -33.311844 -111.02016 -36.081577 -59.997578 -1.3084215 -26.01174
-32.834652 -110.21438 -22.728642 -136.62059 -1.3281357 -25.8904 -28.60438 -175.85406
322437500 -36.184135 -93.838669 -1.270371 -34.466728 -22.703173 -107.23044 -33.769638 -115.82159
-1.268538 -34.734787 -28.249836 177.16437 -33.435875 -118.40965 -22.604836 -145.06453
-22.625544 -109.51659 -33.614441 -121.18176 -35.161491 -63.746445 -1.3513259 -35.463936
-33.973648 -120.58692 -22.634096 -145.65637 -1.3578836 -35.351948 -28.497681 178.68526
330248437.5 -39.474331 -75.751015 -1.2774665 -44.229099 -22.540106 -119.51751 -33.433308 -126.20435
-1.2690521 -44.000885 -30.456667 177.12286 -33.439423 -127.62412 -22.483677 -153.91307
-22.450195 -118.58238 -32.809139 -129.39175 -35.637085 -69.864159 -1.3797632 -44.765045
-33.38327 -127.99499 -22.363634 -153.95117 -1.3927549 -45.016743 -29.342308 166.69159
338059375 -38.392029 -87.295341 -1.3021172 -53.704044 -22.320036 -130.18445 -33.653088 -134.3967
-1.3129257 -53.41227 -31.242315 165.25627 -32.475391 -137.40092 -22.411245 -161.80031
-22.350798 -129.75443 -33.104469 -135.60162 -35.01387 -91.898613 -1.3707882 -54.287876
-33.214142 -138.25433 -22.204767 -161.49675 -1.4060682 -54.238461 -31.127012 153.82887
345870312.5 -41.771767 -96.004982 -1.3664937 -63.114601 -22.290255 -140.97133 -33.019207 -147.36057
-1.3299665 -62.645306 -32.525196 162.21695 -32.240669 -147.68587 -22.167721 -169.896
-22.165148 -140.72694 -32.323681 -145.55011 -34.992119 -88.870483 -1.4177941 -63.552971
-32.998749 -147.49281 -22.035719 -169.26665 -1.4389935 -63.770908 -31.57024 148.18057
353681250 -41.129341 -82.588165 -1.3760657 -72.535828 -22.160536 -151.85051 -32.759693 -152.40504
-1.3194466 -72.252029 -33.524662 148.24318 -32.503437 -154.47571 -21.957439 -176.33293
-22.002989 -151.34656 -32.807758 -157.45284 -35.946838 -108.23555 -1.4259288 -73.193855
-32.42094 -155.34897 -22.078558 -176.35805 -1.4453696 -73.187096 -31.746744 138.07208
361492187.5 -38.247498 -142.96431 -1.4108202 -81.733727 -22.231524 -162.65439 -32.081081 -165.9705
-1.3857015 -81.624565 -34.441734 155.17015 -32.403553 -168.1181 -21.774502 175.25705
-22.058966 -162.58388 -32.617104 -167.59531 -35.228882 -119.23694 -1.4622177 -82.725479
-32.536602 -166.51369 -21.723406 175.02475 -1.4698226 -82.726631 -32.683273 135.28746
369303125 -38.242241 -174.68756 -1.4171891 -91.424507 -22.11273 -173.69827 -32.628647 -178.21622
-1.3863764 -90.978989 -34.906242 159.60622 -31.95462 -177.01962 -21.781042 167.76334
-21.981455 -173.76083 -31.767307 -174.31291 -35.059338 -123.6078 -1.4617 -92.069237
-32.495468 -177.32292 -21.739597 168.57101 -1.5162439 -92.041283 -33.483261 126.03393
377114062.5 -44.985306 177.53444 -1.451641 -100.65078 -22.043242 174.61903 -32.628792 174.96907
-1.3880534 -100.62823 -37.102806 150.59995 -32.100739 174.29272 -21.683491 159.56987
-21.909185 176.56618 -31.655937 175.32048 -36.721188 -137.01453 -1.4656265 -101.47037
-32.410053 173.52025 -21.799238 160.12836 -1.5017985 -101.42375 -33.765224 117.43355
384925000 -45.253822 110.69334 -1.4456401 -110.01397 -21.976341 164.70595 -32.049824 162.19289
-1.4197831 -110.24865 -38.099297 145.30307 -32.233063 166.85466 -21.609983 152.06908
-21.873013 164.75636 -31.714563 166.29253 -35.424885 -140.30418 -1.4886082 -111.14749
-31.801989 166.82579 -21.719702 153.01932 -1.5316989 -110.90653 -35.612392 118.10239
392735937.5 -42.00951 163.10797 -1.5116506 -119.67309 -21.969957 152.63431 -32.070366 154.16663
-1.4230608 -119.45974 -37.534309 162.40901 -31.28681 155.72516 -21.759754 145.17413
-21.885702 153.37766 -31.738569 153.58008 -37.027523 -168.3455 -1.5132074 -120.35482
-32.226116 157.44731 -21.653557 145.52834 -1.5715501 -120.31706 -36.157375 100.78672
400546875 -42.189713 93.260857 -1.4758266 -128.91635 -21.906368 142.20477 -31.416178 146.81248
-1.481021 -128.75282 -36.697712 152.92293 -31.796385 144.94315 -21.733627 137.71609
-22.049723 141.6841 -30.582333 146.56096 -35.87756 -174.68819 -1.5451947 -129.78616
-31.654976 147.49449 -21.488558 136.97305 -1.5442215 -129.88568 -37.566563 112.77501
408357812.5 -42.998272 98.354858 -1.5047276 -138.59529 -21.827456 130.46394 -31.388302 136.09311
-1.4784456 -138.28925 -38.385326 160.03856 -31.036795 135.06757 -21.593859 130.66086
-21.80467 129.27409 -30.786831 137.52815 -39.477478 159.71902 -1.5586542 -139.42838
-31.779633 136.97691 -21.557812 130.72279 -1.6084425 -139.15683 -39.539486 98.425293
416168750 -39.594982 100.14174 -1.5467359 -147.86478 -21.960722 118.47721 -31.488756 126.9389
-1.4992081 -147.4369 -38.223167 146.17825 -31.553366 127.33945 -21.538919 122.80695
-22.025093 119.76731 -31.434444 126.19407 -38.157131 -176.95193 -1.543644 -148.8997
-31.486294 128.60251 -21.355087 122.43599 -1.5770612 -148.81676 -41.365566 110.21774
423979687.5 -36.851631 48.337158 -1.5221679 -157.44417 -21.983912 106.96387 -31.736664 114.67693
-1.5581059 -156.87239 -36.379742 161.05017 -31.193813 112.84509 -21.593653 115.32851
-21.785902 109.45911 -30.75185 116.30894 -43.428337 134.99629 -1.6071868 -158.1626
-31.314322 120.35571 -21.64831 115.85299 -1.6095411 -157.96321 -39.830421 64.753746
431790625 -35.149799 42.734997 -1.6007212 -166.70654 -21.832886 97.85743 -31.78974 110.00043
