!Agilent Technologies,N5245A,MY51251349,A.09.33.09
!Agilent N5245A: A.09.33.09
!Date: Tuesday, September 29, 2020 11:26:29
!Correction: S11(Full 4 Port(1,2,3,4)) 
!S12(Full 4 Port(1,2,3,4)) 
!S13(Full 4 Port(1,2,3,4)) 
!S14(Full 4 Port(1,2,3,4)) 
!S21(Full 4 Port(1,2,3,4)) 
!S22(Full 4 Port(1,2,3,4)) 
!S23(Full 4 Port(1,2,3,4)) 
!S24(Full 4 Port(1,2,3,4)) 
!S31(Full 4 Port(1,2,3,4)) 
!S32(Full 4 Port(1,2,3,4)) 
!S33(Full 4 Port(1,2,3,4)) 
!S34(Full 4 Port(1,2,3,4)) 
!S41(Full 4 Port(1,2,3,4)) 
!S42(Full 4 Port(1,2,3,4)) 
!S43(Full 4 Port(1,2,3,4)) 
!S44(Full 4 Port(1,2,3,4)) 
!S4P File: Measurements: <S11,S12,S13,S14>,
!<S21,S22,S23,S24>,
!<S31,S32,S33,S34>,
!<S41,S42,S43,S44>:
# Hz S  dB   R 50
10000000 -20.266556 47.514202 -0.30241954 -19.709887 -35.188999 37.493511 -45.534534 125.75069
-0.29727802 -20.052645 -19.881657 61.148129 -55.686619 -129.01131 -34.776005 68.39225
-37.881077 71.434128 -48.458683 -21.688801 -20.686083 44.948231 -0.2856884 -21.173357
-53.537018 -88.008545 -38.464874 38.956875 -0.479958 -20.2355 -20.269138 51.981491
17810937.5 -26.671267 5.735877 -0.37032565 -28.250616 -33.551071 63.191517 -51.392944 172.15572
-0.26140136 -28.072403 -25.225773 17.800652 -48.556686 113.8466 -34.292065 59.723045
-34.150566 61.627583 -58.142033 141.99757 -24.613571 17.369871 -0.45396858 -29.591532
-48.427425 133.16144 -33.419899 57.778847 -0.47343576 -28.960609 -24.007103 21.971136
25621875 -26.53421 -12.648973 -0.41575259 -39.019787 -31.313774 49.970474 -50.608559 48.638489
-0.39326707 -39.434982 -25.399588 -12.00518 -53.058678 49.612541 -30.924356 39.951591
-31.490082 48.496613 -50.377876 162.51128 -26.428316 -9.3082991 -0.45454854 -40.243698
-59.346764 83.511696 -30.759701 42.884983 -0.496773 -39.825466 -26.321947 -9.2605581
33432812.5 -26.468922 -36.564438 -0.40653911 -49.139523 -29.355761 41.502522 -57.943069 159.19339
-0.44098508 -49.367443 -29.774546 -45.326641 -61.951244 -158.20892 -28.709019 30.557457
-28.7437 41.419044 -48.136501 74.544449 -26.488186 -38.476982 -0.47657743 -50.457966
-54.342136 166.30618 -28.464836 38.340668 -0.53050864 -50.259071 -27.849983 -33.021362
41243750 -25.311666 -53.161236 -0.43085471 -60.545197 -27.543745 36.072468 -71.963921 89.888931
-0.47636154 -60.648434 -28.650391 -58.149746 -56.754066 -52.390556 -27.390331 29.104382
-27.12327 33.039024 -60.171818 -118.0246 -28.168642 -65.226112 -0.50539267 -61.43618
-55.754467 60.178986 -27.705048 26.175526 -0.57346064 -61.28616 -27.393591 -55.609692
49054687.5 -26.444637 -83.071121 -0.48276716 -71.386818 -26.529142 23.119963 -61.494587 36.903851
-0.48124126 -71.583565 -31.266787 -77.12207 -52.059956 179.80728 -26.500181 14.209349
-26.521187 21.334017 -52.84285 -108.53891 -27.744457 -89.422821 -0.56836134 -71.968346
-57.044079 156.11519 -26.905489 16.518698 -0.62955606 -72.02095 -27.786739 -76.679932
56865625 -24.827709 -106.08218 -0.57670265 -82.486931 -26.190767 8.8368492 -49.214905 -128.07756
-0.54562497 -82.661232 -29.088047 -103.95719 -48.019291 -109.17037 -26.002014 3.3495982
-25.796957 9.8465843 -49.491142 161.44138 -27.130213 -115.45835 -0.60997808 -82.8806
-51.568035 -64.791977 -26.361492 2.0205469 -0.57158279 -83.364586 -28.18944 -107.34238
64676562.5 -23.934528 -136.12569 -0.61465025 -93.824646 -26.142763 1.5729922 -46.110966 -120.86423
-0.60001814 -93.799889 -28.303078 -133.25911 -47.594173 -114.42409 -26.04632 -10.168823
-25.947746 2.2952693 -47.789642 -105.32832 -25.845072 -132.83517 -0.59739721 -93.99855
-49.841888 -126.28405 -25.961815 -7.9975095 -0.63399404 -93.825546 -29.733696 -136.71526
72487500 -25.878336 -155.13249 -0.68096298 -104.32955 -26.258495 -7.5219507 -46.393047 -112.70177
-0.60246933 -104.63276 -30.229471 -165.17502 -51.814632 -162.77586 -26.020576 -16.929514
-25.846998 -6.9861035 -47.527283 -147.41406 -25.984993 -148.86218 -0.66587138 -105.0111
-47.248802 -135.40939 -26.222067 -16.978052 -0.67057145 -104.96474 -27.740292 -155.94389
80298437.5 -25.320107 -169.20435 -0.64966702 -115.51185 -26.700254 -16.090275 -43.916782 -160.62138
-0.68829203 -115.45539 -28.225275 -179.23462 -45.489117 -174.60231 -27.16379 -30.700987
-26.736643 -18.21999 -42.799011 -154.05978 -25.207413 -176.12723 -0.66923869 -115.96254
-46.512287 -173.52037 -26.035442 -28.244047 -0.72891939 -115.88718 -27.215693 -171.63934
88109375 -24.485544 176.02396 -0.68333745 -126.59913 -27.204069 -24.039492 -43.674496 -178.2608
-0.69714487 -126.21805 -26.782349 154.95726 -43.898018 167.86075 -27.175974 -38.70742
-26.871849 -26.206903 -43.579979 -168.01585 -24.991816 166.58128 -0.69272882 -127.08985
-43.836632 -175.60614 -26.527094 -40.605022 -0.72547573 -126.84308 -27.444126 167.38078
95920312.5 -24.148872 158.00189 -0.72406226 -137.42976 -28.067945 -37.242695 -42.276119 167.05222
-0.71044761 -137.29861 -27.812313 140.87587 -40.041054 155.98018 -28.143068 -48.776833
-28.196392 -31.748766 -42.418919 163.53609 -24.201195 148.59477 -0.71525776 -137.88083
-40.446198 156.88847 -27.724142 -48.845505 -0.76875865 -138.00566 -26.489952 154.09515
103731250 -23.707132 142.5564 -0.76802433 -148.39182 -29.335033 -44.554771 -39.4828 141.29799
-0.72377372 -148.44667 -26.097881 118.93852 -42.139446 147.04741 -29.653595 -59.606106
-29.776714 -45.282753 -38.203629 142.66507 -24.296898 132.81288 -0.81401676 -148.88406
-40.684643 145.45334 -29.526905 -60.05872 -0.80708027 -148.83554 -25.038267 130.69283
111542187.5 -22.957029 123.57944 -0.82772821 -158.97423 -32.040031 -49.788109 -39.061504 123.03036
-0.73227704 -159.25282 -26.676069 97.398293 -41.969738 121.92688 -31.887896 -67.659714
-31.331333 -49.477791 -40.230949 108.11072 -23.903332 120.25594 -0.78836673 -159.71477
-40.233376 135.46185 -31.232967 -69.001404 -0.78054851 -159.61151 -26.185251 109.80525
119353125 -22.57938 105.80479 -0.85836798 -170.46957 -34.701588 -53.762173 -38.965137 114.49356
-0.82786095 -170.33981 -25.203674 89.244057 -39.598083 116.52613 -35.145622 -75.365829
-34.620247 -52.646595 -40.043682 104.78329 -23.884869 106.07929 -0.79811227 -170.6846
-39.236584 120.45342 -35.128181 -74.979797 -0.82877135 -170.52589 -25.187757 95.393478
127164062.5 -23.357471 92.353096 -0.83731377 178.81285 -40.070217 -31.827497 -37.540451 98.058517
-0.81335062 178.96916 -24.832811 73.092888 -39.301495 87.551987 -42.317127 -69.066681
-39.624844 -43.879883 -39.156567 96.90078 -23.996342 85.008629 -0.87124872 178.4343
-38.549412 87.393997 -42.393124 -73.730034 -0.89255357 178.63583 -24.930393 81.194565
134975000 -23.580132 76.787827 -0.92413604 168.03096 -41.491688 19.414505 -38.621815 81.186844
-0.85394669 167.95549 -24.272724 55.546707 -38.906116 84.804924 -44.635483 3.4733424
-40.378029 19.430367 -36.712467 77.453796 -24.033426 73.257019 -0.88236022 167.54221
-37.922276 76.269585 -41.83149 19.950321 -0.88747436 167.60471 -25.007154 64.980225
142785937.5 -23.083548 59.384541 -0.88385826 157.07649 -35.64872 40.170071 -38.026592 65.694183
-0.87952012 157.04443 -23.887354 41.939533 -38.204067 60.199581 -36.8978 38.460403
-36.265823 40.950218 -38.117332 62.133022 -23.925322 57.930298 -0.88278532 156.68976
-37.821949 57.05933 -37.201782 47.99947 -0.91371512 156.73148 -24.989531 50.221687
150596875 -22.884859 50.951492 -0.92028344 146.02205 -32.011776 44.962723 -37.676067 47.518398
-0.91116112 146.04749 -23.554453 25.703051 -38.286205 49.134571 -32.539589 35.039314
-31.705509 49.340279 -38.532848 51.814568 -23.454786 38.884216 -0.9309628 145.80278
-38.362183 46.123959 -32.105095 41.554523 -0.97594804 145.69876 -24.612329 37.801086
158407812.5 -22.725128 26.886757 -0.93617839 135.24284 -29.065163 40.849407 -37.660698 34.827858
-0.92736751 135.36981 -23.681559 13.64905 -38.359055 31.27763 -29.235838 26.086605
-28.824032 42.510803 -37.563675 23.784832 -23.334103 26.131136 -0.95607978 134.70914
-37.992821 39.304752 -29.241419 27.406727 -0.97033948 134.72224 -24.136587 19.82937
166218750 -23.172375 15.471948 -0.97144324 124.1293 -26.946791 33.765354 -37.954983 24.571352
-0.96482551 124.47668 -23.668205 3.1248472 -38.37479 19.973906 -27.073431 18.477726
-26.926792 33.309029 -37.591156 11.280232 -23.258009 6.6655674 -0.97001213 123.8047
-37.185013 17.774939 -26.875547 17.173302 -1.0044457 123.7315 -24.162693 6.1240215
174029687.5 -23.71496 -0.33730578 -0.97835183 113.35363 -25.088039 24.483894 -38.118244 8.3023529
-0.96817631 113.68649 -24.066175 -9.7015648 -38.495728 13.258906 -25.42952 7.0165038
-25.059397 26.818716 -39.58345 12.769963 -23.985964 -4.2045765 -0.99123931 112.948
-37.691551 12.045375 -25.470526 7.9734879 -1.0344138 112.90096 -24.93058 -5.5752654
181840625 -23.950121 -14.166175 -1.0184065 102.39687 -23.761272 17.512356 -38.894833 -4.7338476
-0.99795884 102.50898 -23.99761 -20.732878 -39.291012 -1.145116 -24.039568 -2.8894744
-23.631498 16.412075 -38.30986 -10.107302 -24.587763 -22.360313 -1.0438514 102.14822
-38.564304 -8.6996927 -24.035015 -4.36655 -1.0680246 102.10577 -25.14242 -18.010561
189651562.5 -24.537497 -24.501055 -1.0689466 91.477814 -22.946693 7.2474952 -39.189342 -14.66786
-1.0348974 91.765579 -24.149458 -30.644955 -39.88261 -15.286045 -22.985376 -13.781363
-22.836891 6.8763576 -37.853092 -13.009819 -25.064079 -33.249386 -1.0248494 91.28463
-38.818771 -9.6594162 -22.894175 -14.163612 -1.0604006 91.196159 -25.744545 -28.504562
197462500 -24.535431 -31.363806 -1.0411259 80.790863 -22.123085 -2.0555048 -38.507557 -26.285349
-1.0445697 80.724991 -24.625225 -40.962769 -39.86179 -19.099333 -22.205454 -24.438049
-22.039293 -2.5031416 -40.31485 -21.51911 -25.330877 -49.111061 -1.0549008 80.176926
-38.286224 -25.124357 -22.15461 -23.275845 -1.1048074 80.274521 -25.389143 -41.406197
205273437.5 -24.410078 -45.971493 -1.0429212 69.819824 -21.445297 -10.619698 -38.645878 -39.007244
-1.0762981 69.977448 -24.329554 -52.552887 -40.375942 -36.233952 -21.461813 -34.202579
-21.323029 -11.863051 -39.666359 -30.896101 -25.993782 -60.765667 -1.0968155 69.051163
-39.098862 -41.051571 -21.439148 -34.669136 -1.0950513 69.291275 -26.480324 -53.47813
213084375 -25.257666 -61.903255 -1.1101421 59.037956 -20.859724 -21.964621 -41.18169 -52.802143
-1.1260495 58.845264 -25.047613 -63.224628 -38.107651 -36.930584 -21.201151 -45.357716
-20.884922 -21.742413 -39.665585 -32.052071 -27.651995 -75.585091 -1.1117795 58.553513
-39.388569 -48.09079 -21.023756 -45.295258 -1.157285 58.288971 -26.659451 -67.737419
220895312.5 -25.825424 -73.475723 -1.1669847 47.837582 -20.610926 -31.641916 -39.625088 -55.326908
-1.1053346 48.186661 -25.556616 -73.109772 -40.158295 -54.680771 -20.844866 -55.763908
-20.660336 -32.128208 -40.44973 -50.411613 -26.967495 -83.739632 -1.1460125 47.251545
-40.256149 -53.131603 -20.833254 -55.697395 -1.157051 47.506405 -26.681614 -76.156853
228706250 -28.038952 -92.237823 -1.1761971 37.067421 -20.562946 -41.978951 -39.601475 -68.402702
-1.1354104 37.248508 -26.625126 -80.169327 -39.38752 -58.085957 -20.577801 -66.81871
-20.601711 -41.229111 -39.786247 -55.205067 -28.787971 -101.40199 -1.1516409 36.696926
-40.016201 -62.019001 -20.621939 -66.926323 -1.1754372 36.52726 -27.830338 -84.761131
236517187.5 -28.940016 -106.66705 -1.1944413 26.242868 -20.454021 -51.841976 -38.624538 -67.039467
-1.1810597 26.258633 -26.738585 -82.86631 -38.215927 -60.010014 -20.648424 -77.086639
-20.343489 -51.178093 -39.825336 -67.722656 -29.948391 -109.57476 -1.2094735 25.738079
-38.558422 -63.363297 -20.578508 -77.636551 -1.236823 25.661377 -28.808052 -96.052963
244328125 -32.441807 -116.08978 -1.2116367 15.414704 -20.646847 -61.443214 -38.431046 -72.128647
-1.2318504 15.324108 -28.734283 -92.181854 -38.292007 -64.252472 -20.627485 -87.449158
-20.587864 -61.462887 -38.869793 -65.085342 -32.388721 -129.83931 -1.2092935 14.850034
-38.531345 -78.522865 -20.664927 -87.718178 -1.2417605 14.89013 -30.323174 -103.59355
252139062.5 -33.826408 -121.05851 -1.2020302 4.6191864 -20.630409 -72.398201 -38.407112 -83.968964
-1.2186239 4.3928156 -28.301832 -105.10451 -36.794022 -84.489731 -20.931076 -97.610786
-20.653618 -71.348885 -37.784176 -72.46627 -35.166668 -132.99445 -1.2167437 3.8932011
-37.395416 -79.09742 -20.755026 -98.040123 -1.2705032 4.0871177 -30.512182 -114.85504
259950000 -31.611866 -122.55906 -1.2780411 -6.352809 -21.276438 -83.16922 -36.887325 -90.438538
-1.221184 -6.2631097 -30.412159 -103.7418 -37.787056 -92.317207 -21.06529 -109.24905
-21.222696 -82.554642 -36.991512 -87.816582 -34.14896 -155.31776 -1.2383415 -6.7587476
-37.542423 -96.194496 -21.224335 -107.40092 -1.2432775 -6.8825903 -33.137955 -118.55672
267760937.5 -32.466919 -164.53378 -1.2618687 -17.113373 -21.867691 -92.950775 -36.748119 -102.86349
-1.23692 -17.199934 -30.199541 -107.62229 -35.779709 -105.10011 -21.6231 -117.83966
-21.906212 -92.516281 -37.549034 -105.19716 -39.76915 -147.6933 -1.2792338 -17.752432
-38.61005 -101.05762 -21.565962 -116.85773 -1.2810237 -17.673231 -33.441929 -124.7539
275571875 -37.008102 -163.47498 -1.29311 -28.23465 -22.290668 -103.542 -35.981915 -111.71491
-1.2505304 -27.951731 -31.89526 -111.48167 -37.101364 -117.28867 -22.333494 -127.68901
-22.304525 -103.60783 -36.622028 -106.32241 -43.715786 169.75087 -1.2891062 -28.726608
-36.600697 -106.67342 -22.350426 -126.1161 -1.301573 -28.594 -36.426079 -122.00826
283382812.5 -44.059155 153.01205 -1.3233409 -38.87043 -23.378643 -115.58091 -36.499943 -122.97898
-1.3042684 -38.593853 -32.294415 -102.75021 -35.007336 -119.35796 -22.917259 -136.02737
-23.435833 -113.82005 -35.628971 -125.19738 -46.079773 10.034 -1.3117313 -39.844398
-36.006107 -119.80061 -22.932327 -137.23323 -1.3347718 -39.596207 -38.257748 -153.63936
291193750 -44.464714 116.14954 -1.3279402 -49.775074 -24.23262 -125.73258 -36.146072 -139.31032
-1.3185925 -49.58601 -31.122301 -110.65471 -34.808716 -132.52814 -24.107859 -144.84346
-24.225683 -126.46681 -34.76202 -129.85863 -40.230183 -2.926353 -1.3176824 -50.494492
-36.288383 -132.98048 -24.026873 -145.02623 -1.3754812 -50.58416 -39.3564 -121.49107
299004687.5 -52.008106 147.50682 -1.3070322 -60.808247 -25.404499 -137.56477 -35.677258 -147.99207
-1.3661151 -60.510086 -31.695303 -94.408806 -35.319042 -144.44485 -25.118437 -153.17677
-25.329149 -137.34599 -34.615925 -145.26285 -38.726898 -28.09164 -1.3520869 -61.239048
-35.342552 -146.31215 -24.940746 -151.87752 -1.3414981 -61.468876 -47.35043 -94.400452
306815625 -49.084015 36.842915 -1.3769537 -71.685349 -26.634987 -152.93318 -35.295238 -157.52887
-1.3431617 -71.494919 -31.717934 -104.04475 -34.535786 -160.13542 -26.484724 -158.49658
-26.791739 -150.84978 -35.16761 -156.86349 -37.014957 -25.495874 -1.358215 -72.287964
-35.017277 -155.80321 -26.277309 -159.85007 -1.405602 -72.359154 -42.342403 -85.524933
314626562.5 -40.290501 8.2229834 -1.3706734 -82.341095 -28.708199 -166.67464 -34.578781 -169.06143
-1.3814021 -82.432335 -33.090828 -97.565529 -34.097233 -167.63007 -27.789682 -165.40266
-28.630365 -166.27551 -34.016506 -171.70508 -33.00005 -37.288815 -1.3729657 -82.892639
-33.755711 -168.71855 -27.85619 -164.55588 -1.4083829 -83.213684 -43.033859 -69.627113
322437500 -34.864948 11.528391 -1.3706959 -93.249031 -31.164455 -177.76294 -33.899483 178.80064
-1.3915607 -93.221245 -32.776909 -94.545731 -33.557713 -179.23895 -29.178368 -168.34972
-31.31715 -178.81947 -33.990658 177.39407 -32.378754 -48.852882 -1.4249514 -94.123573
-34.080212 -176.31415 -28.930182 -166.92432 -1.4318067 -93.917297 -43.756577 -53.838173
330248437.5 -32.611492 -13.921165 -1.4466832 -104.11317 -34.392258 161.70145 -34.99017 168.1019
-1.3863703 -104.12385 -31.284157 -104.5591 -33.632462 170.3036 -30.925863 -166.61914
-34.223846 160.32671 -34.034496 169.76019 -31.782988 -55.98584 -1.437831 -105.09478
-33.475941 169.29478 -30.650478 -166.35602 -1.4620706 -105.03479 -36.843922 -56.053463
338059375 -32.873104 -24.068802 -1.4536393 -115.08868 -38.699612 122.90694 -33.970028 152.32913
-1.4476409 -114.68269 -30.599281 -96.116074 -33.966251 155.50366 -31.970951 -161.16989
-38.014339 128.60283 -33.528721 159.72974 -30.849762 -58.730549 -1.436663 -115.73683
-33.767033 153.94264 -31.857035 -159.5876 -1.4969164 -115.60895 -33.785793 -62.570244
345870312.5 -30.352472 -34.357445 -1.4886889 -126.14186 -40.128975 64.814034 -33.309723 143.19249
-1.4235322 -125.72778 -30.847654 -108.71991 -33.602821 147.271 -32.573681 -151.62
-39.953262 73.842392 -33.245556 146.00302 -28.697645 -73.675392 -1.4885966 -126.65565
-33.495304 145.53706 -32.173862 -148.97952 -1.4913903 -126.79379 -33.527561 -74.634659
353681250 -29.9662 -50.560356 -1.4775212 -136.97363 -37.871452 30.851091 -33.121803 133.11389
-1.4576601 -136.74284 -28.761745 -105.70594 -33.250179 134.39429 -32.033241 -143.14984
-36.084614 27.579489 -32.850636 131.27161 -29.038652 -78.197128 -1.4933003 -137.69092
-33.394863 135.40242 -31.962093 -140.6169 -1.505192 -137.64383 -31.233793 -73.787933
361492187.5 -29.96015 -43.273567 -1.4864286 -147.63611 -33.60759 -0.79490823 -32.099529 120.06234
-1.5050726 -147.50444 -28.603798 -112.27142 -32.583317 118.82811 -30.703753 -138.62274
-33.772907 -2.5348942 -32.813198 120.86449 -28.587944 -84.988663 -1.5268946 -148.6855
-32.400501 123.14421 -30.601284 -137.0179 -1.5346869 -148.57634 -31.409449 -81.981621
369303125 -28.510387 -59.308411 -1.5265402 -158.75827 -31.283089 -24.678944 -32.677219 108.93518
-1.5204635 -158.36281 -28.050333 -120.43857 -32.572208 109.07278 -29.345047 -137.40997
-31.503504 -21.325792 -32.644623 111.59901 -27.876604 -96.539055 -1.525219 -159.55055
-32.307964 111.11899 -29.346901 -135.52757 -1.5704936 -159.40996 -29.20977 -92.642204
377114062.5 -26.932125 -75.494545 -1.570346 -169.62201 -29.524801 -36.409019 -32.104778 93.627655
-1.5297989 -169.47618 -27.096148 -123.17211 -32.297127 100.41817 -28.322084 -139.83253
-29.28351 -40.130108 -32.24733 96.540665 -27.298922 -104.63889 -1.5589285 -170.26703
-32.421436 96.337173 -28.035727 -138.41557 -1.5824128 -170.2625 -28.564518 -97.929039
384925000 -26.081825 -85.601707 -1.5781069 179.69591 -28.10494 -55.101475 -32.647636 85.225197
-1.543359 179.71994 -26.197475 -128.32402 -32.484619 86.028969 -26.762241 -143.11852
-27.840794 -53.07774 -32.381851 89.100235 -26.386082 -116.3755 -1.5873691 178.73129
-32.10564 83.788025 -26.949602 -143.57866 -1.6292427 178.74477 -27.950033 -112.37781
392735937.5 -26.420055 -98.745163 -1.6054868 168.66293 -26.656055 -68.332474 -32.217995 74.992455
-1.5504704 168.73499 -25.476984 -141.74319 -32.689606 77.467087 -25.751873 -150.01701
-26.830544 -67.307487 -31.992683 76.686203 -25.955927 -119.8363 -1.6157491 167.82329
-32.149696 76.759865 -25.536051 -148.68773 -1.6439993 168.01054 -26.90782 -120.25312
400546875 -25.774773 -111.66341 -1.6238761 158.09192 -25.834442 -83.656059 -31.933006 63.324032
-1.6024084 157.98184 -25.143223 -148.72256 -31.482138 63.623363 -24.907408 -155.47195
-25.556295 -80.562141 -32.132904 59.777393 -25.848732 -131.06628 -1.6436079 156.99071
-31.004263 60.384079 -24.687103 -156.01224 -1.638469 156.91748 -26.966972 -129.82155
408357812.5 -25.249828 -118.8457 -1.6717992 147.0993 -24.845453 -96.329773 -31.833975 47.662205
-1.6326857 147.0937 -24.382603 -153.82379 -31.641829 52.214298 -24.190174 -163.63821
-24.671236 -95.834618 -32.156467 49.946274 -24.919935 -138.03882 -1.6603719 146.03026
-31.35087 51.603817 -24.036596 -163.25073 -1.6882492 146.16457 -26.080061 -138.04196
416168750 -25.04328 -126.65456 -1.688138 136.17369 -24.197865 -110.4735 -31.167803 37.93914
-1.6746948 136.44832 -23.473228 -158.75023 -31.846663 34.626377 -23.330269 -170.06425
-24.205883 -108.96191 -31.738552 34.700985 -24.606571 -150.09821 -1.6473646 135.17525
-31.320786 38.592548 -23.40984 -170.66367 -1.6819946 135.06322 -26.049339 -148.0264
423979687.5 -23.94628 -140.1813 -1.6993182 125.25279 -23.608122 -123.88951 -31.086042 20.694452
-1.7418683 125.47752 -23.326197 -169.92871 -32.018932 27.64887 -22.944427 -177.57332
-23.441095 -122.65485 -31.961048 28.35074 -24.497799 -159.18796 -1.7257552 124.36069
-31.390419 25.817968 -22.764956 -178.51157 -1.7172847 124.52353 -25.300711 -156.55405
431790625 -23.662004 -149.11784 -1.7715678 114.53838 -23.277555 -137.62636 -31.388302 13.45348
