!Agilent Technologies,N5245A,MY51251349,A.09.33.09
!Agilent N5245A: A.09.33.09
!Date: Tuesday, September 29, 2020 16:19:03
!Correction: S11(Full 4 Port(1,2,3,4)) 
!S12(Full 4 Port(1,2,3,4)) 
!S13(Full 4 Port(1,2,3,4)) 
!S14(Full 4 Port(1,2,3,4)) 
!S21(Full 4 Port(1,2,3,4)) 
!S22(Full 4 Port(1,2,3,4)) 
!S23(Full 4 Port(1,2,3,4)) 
!S24(Full 4 Port(1,2,3,4)) 
!S31(Full 4 Port(1,2,3,4)) 
!S32(Full 4 Port(1,2,3,4)) 
!S33(Full 4 Port(1,2,3,4)) 
!S34(Full 4 Port(1,2,3,4)) 
!S41(Full 4 Port(1,2,3,4)) 
!S42(Full 4 Port(1,2,3,4)) 
!S43(Full 4 Port(1,2,3,4)) 
!S44(Full 4 Port(1,2,3,4)) 
!S4P File: Measurements: <S11,S12,S13,S14>,
!<S21,S22,S23,S24>,
!<S31,S32,S33,S34>,
!<S41,S42,S43,S44>:
# Hz S  dB   R 50
10000000 -19.731781 48.827469 -0.2381245 -20.057753 -40.658367 74.614197 -47.717857 -121.82364
-0.34441194 -19.829208 -19.515041 67.937256 -40.43911 -155.74217 -45.76638 101.36973
-39.663685 35.80323 -44.950779 135.54437 -20.704111 42.007633 -0.35610139 -21.001228
-56.699017 9.2465601 -35.687233 47.772823 -0.50147414 -19.835714 -20.751303 51.472359
17810937.5 -27.04998 4.1205387 -0.42260262 -28.744049 -33.060692 57.673496 -54.951115 65.765305
-0.27563825 -28.653261 -25.653618 17.498655 -49.004475 108.9738 -32.06699 57.084538
-34.124901 61.773968 -47.807953 162.17563 -24.135954 17.302311 -0.48426765 -30.097143
-52.02467 146.4245 -34.008213 53.542301 -0.54491431 -29.260736 -23.909111 19.135271
25621875 -26.747618 -14.617389 -0.38773045 -39.653667 -30.615112 47.15176 -56.040863 157.53886
-0.42120197 -40.192802 -25.383614 -15.933115 -59.310799 36.730461 -30.445574 49.622044
-30.661367 52.457024 -62.523808 -125.86517 -26.226814 -8.7257528 -0.48098651 -41.169678
-50.618988 149.92282 -30.251873 44.495071 -0.5453884 -40.613468 -26.063755 -14.108818
33432812.5 -26.205275 -45.907169 -0.38523996 -50.334309 -28.729959 42.505318 -54.496365 31.41567
-0.43551469 -50.87962 -29.759434 -46.218132 -53.822216 69.972153 -28.599199 35.449436
-28.406174 40.979691 -51.560551 -22.410831 -26.251507 -44.140087 -0.50016838 -51.632397
-57.073051 -176.47469 -29.254128 41.138081 -0.50739139 -51.304424 -27.612965 -41.623722
41243750 -24.789207 -63.91898 -0.42100409 -61.827671 -27.665386 33.214546 -60.511505 -88.334396
-0.39692006 -62.226582 -29.867117 -63.998711 -57.048668 163.38312 -28.06879 26.087296
-27.672375 28.832405 -52.966312 -76.370583 -27.531706 -69.187477 -0.55921924 -62.8405
-79.295013 16.492987 -27.006838 23.308434 -0.63496351 -62.628567 -27.136621 -63.043663
49054687.5 -25.47135 -96.579491 -0.47938436 -72.656471 -26.891844 16.535902 -54.122707 -74.175369
-0.48284268 -73.092476 -31.889786 -89.987076 -58.323875 -55.921429 -26.515478 13.280394
-26.565733 19.741549 -62.535999 -171.95372 -27.147596 -98.505821 -0.60460246 -73.806686
-65.098648 -64.981895 -26.363396 15.672641 -0.63617867 -73.608437 -27.329695 -88.622574
56865625 -24.014027 -117.16938 -0.56561905 -84.063988 -26.136162 8.2840796 -50.055012 -65.714272
-0.53250819 -83.953346 -29.165331 -116.75763 -45.299255 -127.39159 -26.207373 2.9582117
-25.956575 11.127452 -53.48188 -131.54633 -26.19607 -121.30103 -0.63731718 -84.29348
-49.478504 -124.79631 -25.879168 2.7121973 -0.61826283 -84.877693 -27.628204 -115.57033
64676562.5 -22.813328 -144.40828 -0.60240465 -95.584267 -25.982067 0.6686939 -45.07122 -143.45177
-0.56757009 -95.589943 -27.632042 -144.97389 -47.706497 -130.77072 -26.066425 -8.2005243
-25.817724 -1.2613833 -44.584618 -152.39607 -25.377228 -143.38895 -0.66458374 -96.026848
-47.542789 -123.64362 -26.237741 -9.8593769 -0.68791509 -95.772751 -28.354673 -149.30603
72487500 -24.475885 -165.1019 -0.66337842 -106.38338 -26.19841 -7.8946443 -43.348717 -146.84451
-0.56864005 -106.39863 -28.562559 -171.89423 -44.8829 -155.03947 -26.150583 -20.353851
-25.970718 -12.841824 -45.241753 -154.37527 -25.370504 -157.88527 -0.67541909 -107.16593
-47.080395 -146.651 -26.445145 -20.943138 -0.67859244 -106.86604 -26.341904 -163.41612
80298437.5 -23.852203 -172.83183 -0.63417226 -117.82388 -26.716476 -19.231449 -45.760162 -172.51144
-0.63343751 -118.11042 -26.585394 172.69511 -44.395241 -174.63112 -26.549303 -34.535923
-26.331484 -20.798512 -43.090874 -151.88646 -23.964746 -179.52528 -0.69805211 -118.29418
-46.384548 -178.05978 -26.583405 -33.824184 -0.78365719 -118.06758 -25.341352 179.50926
88109375 -22.977083 168.86621 -0.70427901 -129.04843 -27.422014 -29.101513 -41.265556 177.92107
-0.68849593 -128.91948 -25.144697 148.67009 -40.705513 176.40674 -27.096672 -42.076141
-27.347034 -26.901102 -40.498726 161.98444 -23.910271 158.99855 -0.71496111 -129.63887
-42.941174 163.65923 -27.191925 -40.678158 -0.77833802 -129.21815 -25.693026 158.13977
95920312.5 -22.510813 151.98853 -0.73447454 -140.22682 -28.488392 -35.040009 -40.376747 157.71248
-0.7008903 -140.02428 -25.859823 134.82941 -41.323143 168.11528 -29.406225 -52.934879
-28.63409 -36.755226 -41.344589 162.23529 -22.87262 143.16989 -0.76585257 -140.347
-41.173698 154.05435 -28.580275 -51.926971 -0.78656888 -140.41061 -24.659735 146.91261
103731250 -21.913548 136.88478 -0.79028082 -151.18517 -30.168364 -43.262207 -39.701141 138.61188
-0.70541549 -151.35028 -24.405783 115.40853 -39.128418 135.77437 -31.150303 -62.493153
-30.33223 -45.307625 -39.655628 135.79468 -22.798414 125.86649 -0.79212922 -151.76636
-38.664619 139.6591 -31.002314 -61.383862 -0.83309799 -151.7011 -23.704105 125.93252
111542187.5 -21.55485 118.51158 -0.83268231 -162.40628 -33.521187 -50.40741 -38.695435 123.26205
-0.73644137 -162.44019 -24.553854 97.153328 -38.225407 119.98491 -32.982471 -71.743637
-33.390499 -53.130032 -40.382355 127.96226 -22.526365 113.84278 -0.79097372 -162.60001
-39.262722 119.45333 -33.414711 -70.961494 -0.8536731 -162.71606 -24.400583 107.56498
119353125 -21.194754 100.06316 -0.84689027 -173.59715 -36.486042 -45.239491 -37.987835 104.80522
-0.79657453 -173.49922 -23.326036 86.497528 -38.447155 111.36185 -37.384785 -67.457382
-36.701218 -46.927811 -39.837734 100.742 -22.269852 98.372711 -0.85718834 -173.97501
-37.727219 109.35412 -37.302135 -69.500328 -0.87338501 -173.85226 -23.474983 94.350189
127164062.5 -21.922153 88.842979 -0.83646894 175.21251 -42.852203 -9.6223507 -36.606293 81.032242
-0.79375732 175.60193 -22.917183 72.365326 -38.390564 92.754364 -43.871357 -54.964375
-42.172577 -5.7331448 -37.24786 77.245392 -22.326084 80.524422 -0.89263684 175.01369
-38.042648 83.106728 -42.566681 -39.610622 -0.94056416 175.0943 -23.468769 76.783951
134975000 -22.084677 72.597649 -0.90156877 164.08119 -37.922066 32.739708 -36.478256 70.214462
-0.83961958 164.02158 -22.52603 57.415344 -38.02491 65.405678 -40.016029 22.213078
-37.892914 43.248104 -37.101166 72.726654 -22.215076 66.991898 -0.91648638 163.82231
-36.316376 71.572266 -41.085114 37.555668 -0.91821367 164.0448 -23.019785 63.32494
142785937.5 -21.71715 56.635082 -0.93980652 153.23227 -34.018475 45.745918 -36.537945 60.943729
-0.87876797 153.2588 -22.425779 43.443874 -37.005718 52.852573 -33.963161 40.338219
-32.343952 49.761204 -38.087212 59.280067 -22.252556 52.935963 -0.94428408 152.8633
-36.911224 59.39827 -34.166248 35.10854 -0.94316268 152.82497 -23.397617 49.368557
150596875 -21.756823 43.756203 -0.93195099 141.99512 -30.019863 42.515209 -36.027557 40.762718
-0.90581858 142.19757 -22.071243 29.303114 -36.516918 35.672489 -30.101675 30.827305
-30.226196 44.764717 -37.261333 40.535763 -22.060417 35.27309 -0.97982407 141.58534
-35.983093 43.634018 -30.165718 33.903408 -0.98568732 141.74245 -22.913305 35.955238
158407812.5 -21.715742 22.472393 -0.97233665 130.92451 -27.771025 40.131279 -37.738358 34.651134
-0.93595356 130.88997 -22.135855 16.288187 -36.669483 18.950596 -27.837057 23.530174
-27.42931 37.864262 -37.44368 30.120855 -21.949945 21.066448 -0.99951923 130.49974
-36.516338 24.160467 -27.68976 23.992275 -0.99498951 130.32553 -22.526951 22.283594
166218750 -21.767588 10.091352 -0.96278936 119.6378 -25.571947 30.387983 -37.442715 10.45443
-0.9618125 119.82537 -22.234444 8.5966043 -37.075146 7.3498712 -25.689833 14.233049
-25.353258 30.222996 -38.278206 16.234539 -22.033188 4.3942585 -1.0190718 119.24016
-36.978893 10.310287 -25.838934 14.820257 -1.0525893 119.24072 -22.812366 7.5404129
174029687.5 -22.168501 -4.624197 -0.99488384 108.58511 -24.259502 21.469543 -36.77243 -1.0211802
-0.96918744 109.03622 -22.498863 -4.5196991 -37.309231 -0.40262455 -24.436724 3.6606362
-24.058825 22.041508 -36.585426 -3.238894 -22.723551 -8.700141 -1.0117044 108.20798
-36.225388 0.06233491 -24.140991 4.4206133 -1.0819448 108.1601 -23.308865 -3.1827157
181840625 -22.602783 -19.457115 -1.0274454 97.499413 -23.182596 12.156804 -37.063545 -12.803158
-0.99108535 97.667503 -22.373356 -16.027533 -37.951305 -8.121809 -23.328945 -8.1849232
-22.808744 12.670618 -37.739132 -6.5855756 -23.117153 -25.899429 -1.0708779 97.199257
-37.235111 -8.0089579 -23.045219 -7.24649 -1.1022145 97.203339 -23.663589 -14.59568
189651562.5 -22.86656 -31.563625 -1.0946368 86.356216 -22.08647 1.6665903 -38.158688 -21.985826
-1.0100377 86.645935 -22.736641 -25.451036 -38.349564 -22.463629 -22.185703 -18.618334
-21.940632 2.5998383 -38.093441 -26.815775 -23.48645 -36.298447 -1.0967058 86.005859
-37.806053 -23.670605 -22.083303 -18.241364 -1.0949638 86.041748 -24.351547 -25.739777
197462500 -23.068125 -41.097832 -1.072817 75.391373 -21.534288 -8.0587578 -37.569172 -35.519058
-1.0509236 75.42028 -23.453932 -34.517391 -38.235821 -35.016552 -21.437925 -28.398045
-21.438475 -7.4469075 -38.252197 -32.249352 -23.792698 -48.989201 -1.0950179 74.84597
-37.522369 -36.063213 -21.601254 -28.797001 -1.1395857 74.823853 -24.037395 -38.362587
205273437.5 -23.2384 -56.555744 -1.088989 64.215958 -20.786407 -17.302465 -36.751308 -51.383949
-1.0920134 64.609909 -23.206068 -45.635414 -38.119286 -45.800793 -21.097614 -39.451645
-20.759897 -17.512125 -38.379086 -42.289139 -24.180099 -63.452587 -1.1293041 63.580147
-38.4669 -51.737469 -21.055187 -39.851505 -1.1147475 63.686958 -24.67848 -47.273323
213084375 -23.746038 -69.90509 -1.1457045 53.010597 -20.549559 -27.781885 -38.627617 -59.707581
-1.0931867 53.271912 -24.098253 -55.929024 -38.971119 -47.826691 -20.588688 -50.053085
-20.567808 -26.813587 -38.907425 -49.200043 -25.747557 -75.672134 -1.1372498 52.644592
-39.102398 -63.72731 -20.633682 -50.373589 -1.1935136 52.572975 -25.392902 -60.214005
220895312.5 -24.382965 -83.047775 -1.1296362 41.827888 -20.429426 -38.252167 -38.404915 -63.482182
-1.0848221 42.112507 -24.445129 -62.907963 -39.737885 -66.676514 -20.557117 -60.644978
-20.350004 -37.34594 -37.500092 -61.293648 -25.465816 -86.037003 -1.2049574 41.363029
-39.539196 -68.062042 -20.534306 -60.991665 -1.1812738 41.565594 -25.762102 -69.478882
228706250 -25.58128 -103.27604 -1.1550145 30.766775 -20.361513 -49.67754 -38.372906 -73.737755
-1.1649803 31.075134 -25.768312 -71.371628 -37.496807 -65.269005 -20.404182 -71.273293
-20.249636 -48.28051 -39.247242 -62.191006 -26.602852 -101.76353 -1.1869819 30.420321
-39.165802 -64.836182 -20.45701 -72.637283 -1.2168339 30.269947 -26.65276 -76.457893
236517187.5 -26.52231 -120.68642 -1.1708757 19.779299 -20.371294 -58.678436 -38.3312 -65.101654
-1.1407081 19.904161 -25.70821 -72.112839 -37.637749 -69.654114 -20.505205 -82.57254
-20.572639 -58.726406 -38.269657 -72.789391 -27.709457 -112.10607 -1.2301484 19.135454
-38.531696 -79.927521 -20.532373 -81.976158 -1.2583948 19.281376 -27.321898 -82.573082
244328125 -28.225868 -128.54636 -1.2019387 8.7123699 -20.758076 -69.470192 -37.871826 -79.760536
-1.219173 8.8600168 -27.391718 -76.029259 -38.11797 -79.375984 -20.773117 -92.612968
-20.60137 -68.642265 -37.275848 -79.307045 -29.475542 -130.17586 -1.2774644 8.1867838
-37.859306 -80.570015 -20.785143 -91.933098 -1.2869112 8.4178228 -28.700481 -89.165482
252139062.5 -29.639717 -138.5267 -1.2151053 -2.1890092 -21.228725 -80.873016 -36.560078 -99.202141
-1.2227067 -2.1560512 -27.93347 -88.254082 -36.708042 -91.285385 -21.140678 -103.24267
-21.107382 -79.926285 -36.624622 -91.343521 -31.674948 -136.14734 -1.2409672 -2.8612044
-36.998669 -91.324005 -21.114496 -102.22085 -1.3170758 -2.8462739 -29.311459 -96.628326
259950000 -28.192747 -147.56671 -1.2774954 -13.260849 -21.667007 -92.685234 -36.852169 -107.8472
-1.2193016 -13.312354 -28.570801 -84.232628 -37.085789 -99.679489 -21.741056 -113.20634
-21.574516 -90.947914 -36.033161 -107.25919 -31.502647 -156.20796 -1.2878566 -13.914996
-37.011208 -102.00672 -21.41737 -111.58528 -1.2758828 -14.007671 -30.428032 -93.903633
267760937.5 -29.300184 -178.99849 -1.2496338 -24.387028 -22.330252 -101.92113 -36.303562 -108.34754
-1.221486 -24.471413 -29.073141 -89.097183 -36.485912 -109.97212 -22.319466 -122.80527
-22.248236 -101.27383 -36.868843 -114.52868 -34.204025 -158.23288 -1.3228402 -24.875378
-37.510593 -113.54657 -22.404753 -122.83936 -1.3118836 -24.976849 -30.597542 -101.71979
275571875 -32.225487 174.37329 -1.2940049 -35.611435 -23.169943 -113.39041 -36.508465 -130.69868
-1.211579 -35.252712 -30.484329 -94.013229 -35.873322 -118.32322 -23.086742 -131.49551
-23.155605 -112.43459 -35.630489 -117.23263 -37.208637 173.78624 -1.3052237 -36.16431
-36.080013 -118.74121 -23.036339 -131.50479 -1.3300064 -36.04805 -32.340473 -91.635605
283382812.5 -34.086391 150.33945 -1.2848083 -46.418728 -24.518059 -125.70747 -35.25774 -133.61897
-1.2933879 -46.488907 -29.708654 -83.103905 -35.515022 -133.30354 -24.101065 -139.46379
-24.064064 -125.53654 -35.273453 -129.65286 -48.542229 162.79883 -1.3108723 -47.443527
-34.726925 -129.0632 -23.770283 -140.04314 -1.3720019 -47.209141 -33.796535 -104.35538
291193750 -38.080933 116.29759 -1.3259555 -57.859051 -25.578941 -138.02573 -34.401112 -142.14316
-1.2964981 -57.560135 -28.627865 -93.005493 -34.370678 -144.06142 -24.989128 -145.41296
-25.663837 -136.04562 -34.829216 -143.73817 -46.384583 18.672941 -1.3548138 -58.309196
-34.445652 -140.92578 -25.066662 -145.82512 -1.4057045 -58.481918 -32.522125 -100.42648
299004687.5 -37.546288 113.5165 -1.3201898 -68.838844 -27.592783 -150.22566 -35.455811 -158.71358
-1.3401768 -68.771782 -28.392067 -81.49781 -33.76799 -158.99277 -26.679157 -152.01254
-27.135141 -149.93742 -34.60136 -153.80022 -44.410133 -0.10426463 -1.3880354 -69.247093
-34.026337 -151.65535 -26.037214 -152.13359 -1.3824226 -69.456406 -35.133381 -84.63253
306815625 -38.89621 68.210724 -1.3524615 -79.948463 -29.864388 -164.30826 -33.995106 -165.75891
-1.3431827 -79.893486 -27.982029 -90.596489 -34.3144 -164.27539 -27.710653 -158.40337
-29.714809 -164.53287 -33.833584 -170.28731 -38.659584 -14.838173 -1.3971583 -80.605186
-34.242596 -169.43864 -27.84226 -156.27539 -1.4324257 -80.551582 -32.821243 -88.206139
314626562.5 -35.218506 33.779617 -1.3447748 -91.106926 -32.774826 173.5233 -33.004662 -179.05672
-1.3788702 -91.016037 -28.40452 -85.580551 -33.617413 179.48738 -29.408878 -158.19553
-32.26952 175.50406 -33.549942 -178.78781 -34.110008 -28.784309 -1.4254956 -91.691223
-33.24826 -179.9743 -29.78511 -155.03671 -1.4379754 -91.797859 -33.353165 -90.459427
322437500 -31.815638 11.301107 -1.3940644 -102.12115 -36.077221 149.66148 -33.191525 171.33759
-1.3543804 -102.172 -27.696762 -85.138527 -33.050468 169.26849 -31.188225 -153.24896
-36.419582 151.70277 -32.980644 171.98717 -33.271683 -32.667767 -1.439016 -102.97775
-33.420177 169.43394 -30.909555 -153.37465 -1.461431 -102.79257 -32.592846 -85.290718
330248437.5 -30.321678 -7.1287184 -1.4424438 -113.18975 -40.723343 105.29776 -33.107445 156.444
-1.3716345 -113.23645 -27.265842 -95.546295 -32.922848 156.5975 -31.983551 -147.31755
-40.114597 99.267097 -32.693657 153.51299 -31.143011 -45.155113 -1.4880786 -113.87019
-33.15728 157.66104 -32.104584 -141.76756 -1.5035566 -114.01631 -31.438137 -79.329414
338059375 -28.965748 -22.00543 -1.4551915 -124.48278 -38.187931 38.773949 -32.559181 146.1035
-1.4154058 -124.10473 -26.291206 -97.733551 -32.788239 142.54387 -31.673624 -130.89888
-37.867889 38.268993 -32.750168 142.04091 -29.794928 -47.547417 -1.4897406 -125.24059
-32.728577 145.2885 -31.878984 -135.65659 -1.5084379 -124.91408 -29.147139 -85.954262
345870312.5 -27.854137 -35.987904 -1.5009176 -135.68848 -34.4618 8.286067 -32.267128 134.40105
-1.4523098 -135.13293 -26.227394 -104.58878 -32.932983 131.03438 -30.635839 -129.78352
-34.107128 8.4651127 -33.147148 133.95906 -28.401661 -66.414001 -1.5153553 -136.09039
-32.22913 135.52425 -30.586243 -125.89704 -1.5333991 -136.2867 -28.739086 -92.519531
353681250 -27.190655 -50.27174 -1.5079532 -146.71207 -31.16993 -12.11457 -32.152 122.56537
-1.4636551 -146.4635 -24.775103 -111.27018 -32.320148 118.46912 -29.036768 -125.65235
-31.576014 -12.238301 -31.913054 123.91759 -27.720369 -70.282753 -1.5529386 -147.2623
-31.837223 123.716 -29.16361 -125.59525 -1.5553988 -147.26443 -27.754271 -95.023872
361492187.5 -26.535236 -51.733974 -1.492556 -157.60593 -28.845148 -29.434164 -31.714146 109.78738
-1.5207287 -157.48833 -25.044167 -115.59251 -31.873325 105.90823 -27.573719 -128.17955
-28.999069 -29.779703 -31.88274 107.63383 -27.285154 -81.787155 -1.5604018 -158.34283
-31.644482 107.80009 -27.686445 -125.15139 -1.5815132 -158.37038 -27.505823 -102.76776
369303125 -25.225508 -68.024651 -1.5752931 -168.82422 -27.576622 -43.772385 -31.707708 93.815918
-1.529938 -168.45418 -24.495203 -124.83705 -32.165211 93.637566 -26.319334 -130.7115
-27.490335 -45.629574 -32.130585 97.061951 -26.593225 -90.124924 -1.5680836 -169.47083
-31.39904 94.688065 -26.545593 -129.5199 -1.6424066 -169.55026 -26.090403 -110.44071
377114062.5 -24.689577 -82.317406 -1.5820763 179.93819 -26.158171 -59.132938 -31.305849 83.017204
-1.523255 -179.70888 -23.682697 -131.81561 -31.833565 85.99263 -25.2239 -136.25009
-26.173397 -58.542713 -31.550632 84.443794 -25.663174 -101.73043 -1.6060592 179.48097
-31.566256 86.428848 -25.178795 -136.27159 -1.6389965 179.44431 -25.193363 -117.08691
384925000 -23.599415 -94.03746 -1.5821131 169.24454 -25.21413 -73.385262 -30.866642 72.687408
-1.5703052 169.06483 -23.108435 -139.19994 -31.870068 72.161369 -24.407976 -144.3961
-25.039288 -72.872902 -31.502214 71.150757 -24.94066 -115.65279 -1.6347604 168.23203
-30.913687 69.71904 -24.445801 -144.48547 -1.6766284 168.23495 -24.834293 -127.61662
392735937.5 -24.075834 -106.29395 -1.6553816 157.86884 -24.188101 -86.82048 -30.83725 58.613972
-1.5935196 158.07552 -22.999733 -147.64174 -31.596113 59.147335 -23.690151 -151.72064
-24.242851 -84.958755 -31.43042 59.901257 -24.444416 -121.40611 -1.6690538 157.19971
-30.935976 59.425247 -23.576473 -150.69635 -1.6957415 157.43593 -24.185509 -134.18677
400546875 -23.125965 -120.00076 -1.6430153 146.88551 -23.861725 -99.006958 -30.54854 44.782734
-1.6514077 147.11555 -22.595835 -155.97046 -31.320185 45.924744 -23.111614 -158.86659
-23.664824 -99.282692 -31.306641 50.255108 -24.561596 -132.48483 -1.707672 146.04219
-31.046896 46.633991 -22.81579 -159.90654 -1.6912866 146.05548 -24.304266 -143.08566
408357812.5 -23.33057 -128.04089 -1.6870775 135.92043 -22.980955 -114.1413 -31.503353 32.9501
-1.6508114 135.9487 -22.017214 -163.97046 -31.762304 35.989761 -22.243576 -167.97572
-22.871576 -110.25579 -32.195339 34.35862 -23.528238 -142.76984 -1.7132182 135.12399
-30.590483 32.51104 -22.330086 -165.49931 -1.7487637 135.2982 -23.615187 -151.22414
416168750 -22.89172 -138.4902 -1.6967151 125.04895 -22.579662 -125.97904 -30.615402 22.468361
-1.6813096 125.14956 -21.72888 -169.62863 -31.772577 25.052923 -21.958487 -174.89906
-22.347591 -127.71039 -30.570059 24.032154 -23.350969 -156.1133 -1.7408811 124.07779
-30.986265 22.425297 -21.85878 -174.73154 -1.7640191 123.8694 -23.584215 -160.58502
423979687.5 -22.108707 -149.40215 -1.7354834 114.07597 -22.203339 -141.48122 -30.248236 5.0502105
-1.7118613 114.15317 -21.799282 -179.5154 -31.29101 11.897853 -21.324505 177.06218
-21.929266 -140.65036 -31.844181 10.282191 -23.126364 -166.33063 -1.7975676 112.91247
-30.734636 6.6401134 -21.307848 177.60229 -1.7860631 113.11359 -22.77284 -170.18675
431790625 -21.413715 -161.3354 -1.804677 102.49907 -21.618847 -154.70444 -30.618153 -3.7160153
