!Agilent Technologies,N5245A,MY51251349,A.09.33.09
!Agilent N5245A: A.09.33.09
!Date: Tuesday, September 29, 2020 16:16:37
!Correction: S11(Full 4 Port(1,2,3,4)) 
!S12(Full 4 Port(1,2,3,4)) 
!S13(Full 4 Port(1,2,3,4)) 
!S14(Full 4 Port(1,2,3,4)) 
!S21(Full 4 Port(1,2,3,4)) 
!S22(Full 4 Port(1,2,3,4)) 
!S23(Full 4 Port(1,2,3,4)) 
!S24(Full 4 Port(1,2,3,4)) 
!S31(Full 4 Port(1,2,3,4)) 
!S32(Full 4 Port(1,2,3,4)) 
!S33(Full 4 Port(1,2,3,4)) 
!S34(Full 4 Port(1,2,3,4)) 
!S41(Full 4 Port(1,2,3,4)) 
!S42(Full 4 Port(1,2,3,4)) 
!S43(Full 4 Port(1,2,3,4)) 
!S44(Full 4 Port(1,2,3,4)) 
!S4P File: Measurements: <S11,S12,S13,S14>,
!<S21,S22,S23,S24>,
!<S31,S32,S33,S34>,
!<S41,S42,S43,S44>:
# Hz S  dB   R 50
10000000 -19.968954 47.320881 -0.27416438 -19.463032 -50.946686 65.245628 -41.612667 176.65109
-0.32163501 -20.026449 -20.54052 63.542301 -46.569908 40.634747 -37.763401 57.711109
-42.40736 52.720943 -48.889606 -126.89143 -20.82538 36.162876 -0.43035594 -20.518723
-53.403679 -82.28334 -39.36618 74.621445 -0.53040558 -20.270441 -20.522738 49.078976
17810937.5 -27.017586 -2.7389083 -0.38188234 -28.019655 -34.647331 52.768631 -49.604023 80.101433
-0.31605542 -27.918974 -25.240496 9.5025463 -49.245613 129.37 -35.015579 66.033531
-34.107048 60.540665 -46.248276 112.83981 -23.739073 13.577019 -0.4433935 -29.174225
-46.986259 84.335136 -35.466331 49.691357 -0.48258701 -28.773836 -23.777418 13.200568
25621875 -26.757318 -16.273241 -0.4291302 -38.908344 -32.525539 50.100796 -53.056263 -8.6666842
-0.40318456 -39.034443 -25.145519 -22.99824 -61.556767 0.833242 -32.787613 44.820042
-32.43103 42.581841 -59.679211 136.09392 -26.103251 -18.666437 -0.45335138 -40.322781
-50.815704 46.473038 -32.413086 53.057552 -0.52757055 -39.438599 -25.620373 -19.924145
33432812.5 -26.391205 -44.367111 -0.42814523 -48.754261 -30.69346 32.568851 -54.429657 74.108925
-0.45057127 -49.13483 -28.306376 -52.264923 -57.436214 -75.682465 -30.182814 41.246929
-30.302053 37.709549 -67.813286 -168.29379 -26.244459 -39.616352 -0.56500518 -49.848797
-56.670029 -5.791883 -30.492363 40.232117 -0.53969896 -49.776447 -26.440748 -46.547512
41243750 -25.685877 -59.398502 -0.48145989 -59.888664 -29.558445 23.420855 -60.476475 70.715462
-0.48698324 -60.303856 -27.996534 -75.201706 -54.421741 -103.01591 -28.226633 26.419888
-29.270926 27.143391 -53.737431 -111.25833 -27.249067 -66.838493 -0.56788576 -60.756294
-50.507854 84.011826 -29.322739 31.731953 -0.62003803 -60.882286 -26.059469 -69.397522
49054687.5 -25.980671 -91.724251 -0.52679956 -70.799225 -28.430706 17.222424 -59.384186 -139.79941
-0.50084341 -70.938461 -29.614786 -96.77626 -62.192921 -137.11417 -28.467871 16.725044
-28.442163 13.058481 -56.431812 -44.39362 -27.75617 -95.196136 -0.62261403 -71.31028
-54.728065 -62.362141 -27.850248 21.379538 -0.68850696 -71.358932 -26.232048 -89.271362
56865625 -25.122181 -111.35222 -0.59826243 -81.449356 -27.246746 4.496645 -50.338802 -30.378387
-0.55445576 -81.504303 -27.619257 -114.18702 -47.395535 -90.077309 -27.587147 13.858023
-27.669456 9.0048923 -48.765671 -90.526474 -28.184484 -111.54948 -0.6575346 -81.934036
-62.044998 8.2465897 -27.624096 12.047208 -0.62255418 -82.354317 -25.986471 -112.87162
64676562.5 -24.16062 -138.30344 -0.66528517 -92.757843 -26.803471 -7.4908438 -44.635838 -117.93547
-0.60838372 -92.848167 -25.39719 -140.73831 -49.746853 -92.647957 -27.037121 -1.4930438
-27.181494 -6.8588161 -51.850742 -113.78542 -26.906195 -139.37067 -0.61803293 -93.0364
-48.889423 -150.19797 -27.074837 3.8560708 -0.68064123 -93.184395 -26.329424 -142.38701
72487500 -26.169764 -158.81908 -0.66965157 -103.52706 -27.422262 -19.259808 -46.145924 -145.07237
-0.62487376 -103.50653 -26.444399 -163.70645 -53.131351 -141.32066 -27.24884 -7.7519875
-27.085995 -15.996541 -50.988064 -129.22969 -26.645927 -156.57495 -0.72365934 -103.67265
-50.179855 -114.49584 -26.971605 -7.7565627 -0.70690018 -104.00729 -24.545807 -155.82397
80298437.5 -25.539373 -171.78291 -0.67386484 -114.34434 -27.106174 -29.046623 -48.954422 175.74332
-0.6814968 -114.30669 -25.140739 -177.3756 -44.464691 -141.33258 -27.147102 -16.628187
-27.183117 -26.917816 -45.284401 -167.00092 -25.451569 177.71355 -0.72976738 -114.6442
-45.78532 -145.03052 -26.589161 -18.63575 -0.78091693 -114.83648 -24.309368 -170.25128
88109375 -24.812084 174.60997 -0.73818117 -125.36932 -27.322628 -39.620792 -45.249256 -168.87943
-0.72151107 -124.93905 -24.451666 162.46855 -42.328613 178.88927 -27.46102 -29.223324
-27.504084 -41.179115 -45.180527 -163.4675 -25.931114 159.91975 -0.78124446 -125.84953
-45.804871 177.37341 -27.43782 -27.947685 -0.76708758 -125.46275 -24.707241 169.58862
95920312.5 -24.960896 155.02942 -0.73125821 -136.13037 -28.262962 -50.341286 -45.764519 178.79332
-0.70358479 -135.85199 -25.515488 145.17461 -43.759106 167.83728 -27.862104 -36.335144
-28.14887 -45.857647 -43.108498 153.85452 -24.785181 138.50446 -0.78219789 -136.45561
-43.474781 154.71184 -27.93874 -36.038532 -0.82356024 -136.38387 -23.93441 157.57225
103731250 -24.394457 139.08789 -0.78066397 -146.86075 -29.146103 -61.302109 -42.305832 158.72377
-0.72782707 -146.81303 -24.409203 126.46667 -41.700085 154.7899 -28.516598 -43.186485
-29.121117 -59.290215 -41.482841 156.29527 -24.771708 122.90189 -0.82930285 -147.33595
-41.422985 154.231 -28.535126 -43.474098 -0.8486495 -147.39729 -23.428963 136.71738
111542187.5 -23.935246 120.72518 -0.81851965 -157.59969 -30.732857 -71.826622 -41.929367 148.99657
-0.73763561 -157.71365 -24.899147 105.91663 -43.153366 128.96001 -29.88134 -49.329311
-30.578087 -72.498924 -39.33226 122.17004 -24.973949 110.97641 -0.82227808 -158.08749
-40.657654 138.50803 -30.11772 -49.613068 -0.84955704 -157.83647 -24.332184 121.97813
119353125 -23.733171 101.99838 -0.82913435 -168.47037 -32.11771 -79.944374 -40.102116 123.59441
-0.83400142 -168.29771 -24.124069 97.971382 -40.753429 108.25306 -31.560989 -52.66935
-32.364849 -85.894989 -41.194012 110.6153 -24.471636 94.851395 -0.88771129 -168.8376
-40.090256 119.80011 -31.763699 -55.06464 -0.8875736 -168.69441 -23.924782 104.67856
127164062.5 -24.482185 89.235954 -0.8126241 -179.28748 -35.185921 -92.343391 -39.760548 101.56922
-0.79000443 -179.19284 -24.269306 78.417877 -41.954674 94.601822 -33.635315 -58.075325
-35.827721 -90.302002 -39.882656 102.13724 -24.56349 75.255821 -0.93284011 -179.48065
-40.505825 104.45705 -33.590664 -56.198471 -0.92710119 -179.35667 -24.346003 86.00103
134975000 -25.277349 75.111565 -0.87698734 170.14705 -40.661232 -111.15999 -39.157207 85.035965
-0.8324796 169.80807 -24.118965 63.095295 -40.789211 86.753006 -36.989914 -51.321884
-38.676098 -107.44983 -40.437561 85.925598 -24.536581 63.484177 -0.90091181 169.56145
-39.077469 85.751778 -35.852585 -49.648125 -0.91575569 169.71301 -24.170218 71.912468
142785937.5 -24.772621 57.273529 -0.93303359 158.99219 -49.742203 -152.11893 -39.452351 75.850197
-0.86626738 159.27948 -24.050253 45.447861 -40.190685 75.41745 -38.419563 -31.548271
-51.661854 -156.87416 -40.281559 70.757828 -24.679966 48.810551 -0.9257468 158.78574
-38.778214 77.140518 -38.274128 -29.221485 -0.93873072 158.97078 -25.024393 53.814243
150596875 -25.038305 48.669605 -0.93585652 148.27155 -45.428356 62.308205 -39.092457 55.224064
-0.85161102 148.30988 -23.918766 27.933121 -38.768993 53.664711 -36.675472 -8.6666431
-43.446499 78.59333 -40.721146 56.926727 -24.171658 31.478153 -0.94706243 148.22957
-38.476223 62.295532 -37.276806 -14.609225 -0.9879424 148.02415 -24.848869 40.219299
158407812.5 -24.69356 24.764116 -0.93108153 137.61632 -37.69479 54.450542 -40.538261 38.957687
-0.90019953 137.51889 -23.896681 12.38398 -38.46196 57.074657 -34.445034 6.9674745
-37.816593 56.400158 -39.846081 48.191559 -24.290697 22.812281 -0.97479117 137.07143
-38.928596 45.021847 -34.64262 6.0453024 -0.98954314 137.1002 -24.445129 21.834448
166218750 -25.431581 12.065968 -0.9307484 126.7474 -33.244205 38.525417 -39.462032 32.831673
-0.92397034 126.76848 -24.394636 1.0445453 -40.394791 30.007761 -31.597229 5.6661539
-33.48772 38.672451 -38.756798 33.187981 -24.694796 5.0306578 -0.98596919 126.34204
-39.779594 34.626503 -31.389536 8.2123699 -1.0215055 126.04539 -24.900139 4.5926247
174029687.5 -26.030949 -4.9593196 -0.97461748 115.74297 -30.738411 27.067114 -38.791882 19.012506
-0.91980761 116.298 -25.005426 -16.640917 -39.787418 23.737795 -29.667753 5.138216
-30.56497 29.13022 -41.04763 21.179445 -25.34712 -7.6952457 -1.0014335 115.45714
-39.216831 23.501446 -29.965216 7.6276608 -1.065148 115.49543 -25.60379 -11.243249
181840625 -26.552755 -16.56879 -0.97293562 104.99632 -28.620888 14.528475 -39.742599 6.9633603
-0.94954813 105.27807 -24.535881 -28.588879 -39.937752 8.2175493 -28.094166 -0.73710418
-28.585194 15.177374 -40.546021 13.793814 -26.134417 -24.820856 -1.0373064 104.75282
-39.77216 10.441859 -28.096031 0.31823257 -1.0625327 104.74604 -26.286289 -25.343046
189651562.5 -27.593147 -29.426319 -1.0232579 94.143394 -27.31275 3.7606971 -39.816936 6.6766324
-0.95218694 94.260185 -25.208002 -40.811218 -39.788292 -5.3222795 -26.719597 -9.342454
-27.345327 4.6604462 -38.97015 3.2186282 -27.054146 -34.336708 -1.0499294 93.966858
-40.127136 0.53415769 -26.559401 -8.7098856 -1.0723222 93.883202 -27.191721 -42.839783
197462500 -28.073725 -29.664011 -1.029287 83.360863 -26.055054 -6.6664815 -39.101181 -10.014861
-1.002104 83.594368 -26.421482 -56.116486 -40.922966 -2.0244312 -25.674511 -14.890076
-25.863407 -7.4561896 -39.980404 -5.1850052 -27.61171 -45.759426 -1.0612298 83.100403
-39.237301 -13.623961 -25.59198 -15.482884 -1.0859659 82.946503 -26.640219 -55.045872
205273437.5 -27.795757 -46.400127 -1.0211291 72.46563 -24.955023 -18.829535 -40.559975 -22.815598
-1.0389969 72.92131 -25.721012 -66.080627 -39.54303 -21.291845 -24.86451 -25.405472
-25.005465 -17.38406 -41.047874 -22.245197 -28.727871 -57.904526 -1.1013299 72.030716
-39.501888 -24.608339 -24.837351 -24.764048 -1.0995084 72.098824 -27.412563 -70.438751
213084375 -29.271978 -60.706913 -1.0588825 61.714809 -24.51564 -29.689665 -40.364372 -34.864143
-1.0482816 61.755791 -27.279549 -81.282272 -40.682735 -26.350504 -24.108633 -33.801548
-24.296526 -27.489468 -40.834236 -25.578314 -30.986053 -69.047531 -1.1350485 61.264454
-40.775593 -35.313057 -24.363319 -34.402561 -1.1482874 61.228943 -27.819218 -87.29744
220895312.5 -29.689583 -68.211067 -1.1126014 50.789204 -23.667934 -42.154289 -40.060059 -41.60556
-1.0328695 50.955521 -27.909006 -92.156578 -40.145103 -40.779736 -23.654064 -43.95443
-23.522482 -41.684845 -40.224903 -36.639816 -30.98333 -72.496742 -1.1481386 50.445004
-39.688976 -46.339359 -23.460655 -42.106247 -1.1380709 50.467651 -27.976824 -96.811722
228706250 -32.608284 -94.436668 -1.1097051 40.156509 -23.380808 -51.269814 -39.64053 -52.84024
-1.0721217 40.166683 -29.811438 -102.91519 -39.19492 -44.103043 -23.20088 -52.668354
-23.268557 -49.311954 -39.136921 -39.157143 -32.993935 -87.729004 -1.1557138 39.664463
-39.853977 -48.109856 -23.210011 -52.674969 -1.1952267 39.577942 -29.679049 -109.58593
236517187.5 -33.527607 -111.86983 -1.1402017 29.106514 -23.14292 -61.042427 -39.479988 -54.831219
-1.1173624 29.4256 -31.282454 -96.776161 -37.809666 -48.06432 -23.118265 -61.31855
-23.063213 -62.063408 -38.832226 -52.107662 -35.970451 -94.178101 -1.1792583 28.972891
-39.624409 -51.292542 -22.91757 -60.23151 -1.2222792 28.998665 -31.132544 -127.70847
244328125 -38.689922 -114.01689 -1.1733129 18.309879 -23.086315 -73.407013 -38.128834 -59.866138
-1.1483622 18.434175 -35.143429 -108.65298 -38.119183 -61.931171 -22.592394 -71.337753
-22.92869 -73.05851 -37.658215 -65.414528 -43.364059 -99.112907 -1.2120346 18.073318
-38.465622 -63.65073 -22.899343 -70.016365 -1.2262182 18.233356 -33.027054 -139.57156
252139062.5 -40.115612 -116.67552 -1.1989404 7.8279953 -23.027439 -84.896255 -37.30735 -70.168976
-1.1523367 7.7256961 -35.841465 -110.4968 -37.076221 -76.560127 -22.828758 -80.34507
-23.067835 -83.581421 -38.102196 -72.443115 -42.838249 -72.392426 -1.2126039 7.0485091
-37.934299 -71.088051 -22.671755 -79.685555 -1.2473787 7.4176974 -34.745312 -144.68813
259950000 -35.976158 -111.44576 -1.2481525 -3.0270069 -22.901119 -96.048096 -37.260487 -94.779152
-1.1506004 -3.143574 -40.029022 -90.254166 -37.777069 -83.596077 -22.842632 -88.832054
-23.145891 -97.865089 -37.163227 -81.313339 -43.649845 -80.703476 -1.2279606 -3.541961
-37.315548 -90.076065 -23.012671 -88.702232 -1.2624931 -3.5045495 -40.150528 -166.06778
267760937.5 -35.736732 -166.37027 -1.2383432 -13.714301 -23.287867 -106.07361 -37.8125 -94.971779
-1.1922385 -13.734244 -36.743622 -77.837708 -37.164867 -95.245949 -22.990118 -98.434929
-23.217169 -107.38282 -37.748455 -98.020935 -39.109879 -38.423683 -1.2893487 -14.171141
-37.727161 -92.923882 -23.156155 -98.128265 -1.2682239 -14.143364 -45.043728 -153.05074
275571875 -44.150291 -145.14063 -1.262159 -24.545614 -23.515358 -118.56971 -36.304165 -114.06828
-1.2048415 -24.119011 -38.921158 -56.971615 -36.468769 -101.88493 -23.46365 -106.70777
-23.652058 -118.64986 -35.976837 -106.55671 -40.434826 -16.722372 -1.3025324 -25.075426
-36.782814 -108.41218 -23.466446 -107.37073 -1.3125175 -24.921738 -53.784771 19.073502
283382812.5 -53.041454 155.09984 -1.2734377 -35.213131 -24.152159 -129.39369 -35.822872 -119.58743
-1.2456821 -35.205673 -33.012493 -49.308323 -35.541203 -113.40357 -23.809246 -116.77648
-23.976175 -129.58633 -36.239391 -119.11278 -33.834515 -18.891081 -1.3404548 -35.919815
-35.965885 -116.84864 -23.949894 -115.53143 -1.3213084 -35.796017 -57.600109 -4.571146
291193750 -54.424965 65.331932 -1.297184 -46.159389 -24.527309 -142.93608 -36.999027 -129.26523
-1.2584176 -45.825401 -30.516293 -66.555244 -35.340721 -133.10254 -24.351751 -124.89217
-24.762629 -141.21512 -35.095352 -131.13568 -33.562534 -19.924664 -1.3272133 -46.675461
-35.631947 -126.28852 -24.440336 -124.93845 -1.3536156 -46.685913 -38.599365 -28.634329
299004687.5 -53.888882 155.95369 -1.2743044 -57.153267 -25.363501 -154.83334 -35.307503 -148.78281
-1.3091674 -56.864513 -28.49374 -56.142269 -35.337944 -140.90062 -25.109352 -133.15718
-25.452738 -154.30667 -34.867416 -146.68405 -33.144482 -35.781204 -1.3462127 -57.365856
-35.606102 -140.65836 -24.966154 -133.35695 -1.3517442 -57.36113 -36.236435 -21.695473
306815625 -46.95607 22.309021 -1.3216923 -67.782822 -26.20059 -165.78305 -35.070683 -151.3954
-1.3185818 -67.575874 -27.167868 -69.530098 -34.666824 -152.96169 -25.660925 -143.08839
-26.348898 -164.96716 -35.37524 -153.29472 -32.455292 -37.223972 -1.3672562 -68.372299
-35.059963 -154.96631 -25.814718 -140.68471 -1.4053506 -68.210716 -33.444069 -48.125816
314626562.5 -43.435471 30.043934 -1.3455286 -78.329788 -27.480438 -176.31152 -34.664009 -172.2843
-1.3198981 -78.581253 -27.326963 -70.865952 -34.806713 -166.58989 -26.874289 -148.51523
-27.360327 179.07755 -33.631641 -166.65977 -30.94005 -42.938457 -1.4088093 -78.908775
-34.897461 -167.6989 -27.063923 -146.364 -1.4196131 -78.922691 -31.981049 -51.587856
322437500 -36.065636 20.935595 -1.3596913 -89.190475 -28.916298 170.57237 -34.718067 179.32463
-1.336229 -89.387833 -26.663754 -75.838654 -33.76627 -176.73305 -27.787861 -153.98119
-28.446245 166.34222 -34.777771 179.64717 -31.109743 -52.405041 -1.4062694 -89.72168
-34.88559 -178.75694 -27.742315 -154.35437 -1.413017 -89.678482 -31.589922 -55.972103
330248437.5 -33.455509 13.131819 -1.4174119 -99.871826 -30.64739 156.83485 -34.455025 173.94685
-1.336104 -99.972992 -25.601143 -86.985771 -34.190701 171.43552 -29.252291 -157.01402
-30.422892 150.6086 -34.848633 171.29161 -30.555466 -54.016758 -1.4145519 -100.54861
-35.208817 173.6568 -29.104973 -159.15286 -1.4443951 -100.74327 -29.801167 -62.620178
338059375 -33.434258 1.9990938 -1.388456 -111.00393 -32.786575 136.65533 -34.200943 163.14951
-1.3805655 -110.65388 -24.777805 -92.868019 -34.080399 157.58568 -30.64555 -160.67633
-32.309059 137.26645 -33.786221 162.28377 -30.76792 -54.938469 -1.4494025 -111.39617
-34.064503 163.49405 -30.676479 -162.00314 -1.482109 -111.12467 -28.302317 -73.288605
345870312.5 -31.419405 -9.3161745 -1.4427594 -121.86687 -36.184654 121.52413 -34.066242 148.05119
-1.3791167 -121.28726 -24.684301 -106.13535 -34.200832 147.00485 -31.776066 -160.00456
-34.942501 117.9735 -33.984074 146.38345 -29.096933 -63.69006 -1.4633443 -122.07145
-33.688469 148.99098 -31.385115 -162.21121 -1.4758215 -122.19547 -27.846205 -84.453499
353681250 -30.310495 -25.698025 -1.4413341 -132.56807 -39.537155 86.048309 -33.550217 134.49692
-1.3926421 -132.37013 -23.500961 -110.52798 -33.493679 133.47087 -33.275723 -159.40395
-38.562626 89.598557 -33.826477 137.2274 -29.836674 -63.484108 -1.5048189 -132.89436
-33.655777 140.02583 -32.23399 -152.76303 -1.487937 -132.92264 -27.344473 -88.033508
361492187.5 -29.535587 -14.965321 -1.4665636 -143.0652 -41.18885 46.761044 -33.54985 126.22519
-1.4318852 -143.00826 -24.054134 -118.08511 -33.192841 125.64479 -34.311901 -143.96397
-39.78701 29.079004 -33.328354 124.89287 -29.537586 -71.103737 -1.4915835 -143.81458
-33.424919 124.08555 -33.596909 -147.39407 -1.5257097 -143.71739 -27.212631 -96.371391
369303125 -27.930077 -32.221752 -1.5079881 -154.04568 -40.203239 -11.508346 -33.075878 110.56187
-1.4761014 -153.76163 -23.711393 -126.68851 -33.328632 112.158 -33.512131 -139.60794
-39.241802 -12.256605 -33.460903 113.01626 -28.993845 -73.400314 -1.5176116 -154.61102
-32.813396 116.22717 -32.988281 -138.78368 -1.5528668 -154.65698 -26.187435 -104.71104
377114062.5 -26.899391 -47.90543 -1.5407147 -164.9962 -35.446884 -45.441978 -33.236004 100.24756
-1.4684867 -164.6866 -23.516308 -132.9366 -32.971588 101.58382 -32.235703 -130.92728
-35.401253 -45.487679 -32.835079 101.43349 -27.992287 -82.356758 -1.5404626 -165.34389
-33.196598 102.81914 -32.123425 -131.82739 -1.5835322 -165.26292 -25.801395 -110.73589
384925000 -25.929495 -59.163364 -1.5237579 -175.3866 -32.843578 -63.804951 -32.794697 89.20359
-1.4807392 -175.5118 -23.126223 -137.52199 -33.185047 89.956932 -30.507824 -132.08813
-32.715672 -65.651352 -33.127888 91.429031 -27.539413 -93.849785 -1.559891 -176.29628
-32.631268 89.298164 -30.491257 -132.93159 -1.6012832 -176.2179 -25.574722 -122.56191
392735937.5 -26.100779 -72.277328 -1.59727 173.72125 -30.616865 -79.909859 -32.818184 79.109047
-1.5149864 173.71742 -23.10586 -146.41095 -33.663967 77.753006 -29.10808 -135.2283
-30.453814 -80.596291 -33.330353 79.708519 -26.996557 -95.43856 -1.5745274 173.12598
-33.052074 78.061813 -28.915157 -132.58408 -1.6263365 173.19011 -25.158567 -129.33478
400546875 -25.198502 -85.630524 -1.5651084 162.88396 -29.574444 -95.673698 -32.564186 65.955376
-1.5552533 163.04129 -23.048063 -154.12686 -33.187683 63.313095 -28.044865 -139.33893
-28.680033 -94.88105 -32.933739 68.925514 -27.055525 -102.5233 -1.6083091 162.25656
-32.890121 67.076172 -27.721949 -138.31702 -1.6353241 162.12495 -25.314783 -135.0881
408357812.5 -25.177254 -92.251266 -1.6140727 152.23096 -27.602095 -108.51633 -32.576355 53.17963
-1.5547017 152.06888 -22.962999 -157.85635 -32.435383 55.337475 -26.659163 -143.09511
-27.183481 -107.34338 -32.865944 55.12178 -26.03982 -113.42487 -1.6449867 151.40755
-32.085426 52.698746 -26.271057 -144.07735 -1.6629497 151.63429 -24.97224 -141.67746
416168750 -24.761757 -104.25757 -1.604932 141.44833 -26.868063 -121.9856 -32.177631 43.039719
-1.5553643 141.58705 -22.58902 -160.07787 -32.263351 46.589016 -25.638458 -150.0667
-26.426092 -124.22614 -32.268574 45.022289 -25.637844 -123.94645 -1.6459322 140.5946
-32.235897 43.550274 -25.695417 -152.23866 -1.6649467 140.62083 -25.139376 -150.00171
423979687.5 -23.514595 -115.6836 -1.6253296 130.55875 -25.002672 -135.25957 -32.383831 28.054323
-1.6373672 130.7514 -22.958084 -168.78072 -33.410496 31.914555 -24.428692 -156.47433
-25.118473 -134.82925 -32.535786 31.292349 -25.08423 -135.16144 -1.7079986 130.14273
-32.323448 32.221046 -24.553774 -158.73001 -1.6751176 130.13904 -24.296598 -155.19292
431790625 -23.262413 -127.19257 -1.7024548 119.73014 -24.3652 -146.97258 -32.588066 19.498449
